Time Stamp,ID,Extended,Dir,Bus,LEN,D1,D2,D3,D4,D5,D6,D7,D8
142397443,00000200,false,Tx,0,8,00,00,00,00,80,10,00,90,
142397644,000002A1,false,Tx,1,8,00,00,00,00,00,00,FF,02,
142397916,000002F0,false,Tx,1,8,00,00,00,00,00,00,00,00,
142407104,00000200,false,Tx,0,8,00,00,00,00,80,10,02,92,
142407296,000002A1,false,Tx,1,8,00,00,00,00,00,00,FF,02,
142407666,000002F0,false,Tx,1,8,00,00,00,00,00,00,01,01,
142416996,00000200,false,Tx,0,8,00,00,00,00,80,10,04,94,
142417193,000002A1,false,Tx,1,8,00,00,00,00,00,00,FF,02,
142417494,000002F0,false,Tx,1,8,00,00,00,00,00,00,02,02,
142427039,00000200,false,Tx,0,8,00,00,00,00,80,10,06,96,
142427234,000002A1,false,Tx,1,8,00,00,00,00,00,00,FF,02,
142427510,000002F0,false,Tx,1,8,00,00,00,00,00,00,03,03,
142437615,00000200,false,Tx,0,8,00,00,00,00,80,10,08,98,
142437835,000002A1,false,Tx,1,8,00,00,00,00,00,00,FF,02,
142438077,000002F0,false,Tx,1,8,00,00,00,00,00,00,00,00,
142446909,00000200,false,Tx,0,8,00,00,00,00,80,10,0A,9A,
142447107,000002A1,false,Tx,1,8,00,00,00,00,00,00,FF,02,
142447352,000002F0,false,Tx,1,8,00,00,00,00,00,00,01,01,
142457386,00000200,false,Tx,0,8,00,00,00,00,80,10,0C,9C,
142457585,000002A1,false,Tx,1,8,00,00,00,00,00,00,FF,02,
142457838,000002F0,false,Tx,1,8,00,00,00,00,00,00,02,02,
142467381,00000200,false,Tx,0,8,00,00,00,00,80,10,0E,9E,
142467598,000002A1,false,Tx,1,8,00,00,00,00,00,00,FF,02,
142467815,000002F0,false,Tx,1,8,00,00,00,00,00,00,03,03,
142468097,00000523,false,Tx,0,8,00,00,00,00,00,00,00,00,
142477432,00000200,false,Tx,0,8,00,00,00,00,80,10,10,80,
142477630,000002A1,false,Tx,1,8,00,00,00,00,00,00,FF,02,
142477898,000002F0,false,Tx,1,8,00,00,00,00,00,00,00,00,
142487376,00000200,false,Tx,0,8,00,00,00,00,80,10,12,82,
142487595,000002A1,false,Tx,1,8,00,00,00,00,00,00,FF,02,
142487670,000002F0,false,Tx,1,8,00,00,00,00,00,00,01,01,
142496940,00000200,false,Tx,0,8,00,00,00,00,80,10,14,84,
142497150,000002A1,false,Tx,1,8,00,00,00,00,00,00,FF,02,
142497409,000002F0,false,Tx,1,8,00,00,00,00,00,00,02,02,
142507379,00000200,false,Tx,0,8,00,00,00,00,80,10,16,86,
142507621,000002A1,false,Tx,1,8,00,00,00,00,00,00,FF,02,
142507923,000002F0,false,Tx,1,8,00,00,00,00,00,00,03,03,
142516990,00000200,false,Tx,0,8,00,00,00,00,80,10,18,88,
142517176,000002A1,false,Tx,1,8,00,00,00,00,00,00,FF,02,
142517443,000002F0,false,Tx,1,8,00,00,00,00,00,00,00,00,
142527014,00000200,false,Tx,0,8,00,00,00,00,80,10,1A,8A,
142527197,000002A1,false,Tx,1,8,00,00,00,00,00,00,FF,02,
142527487,000002F0,false,Tx,1,8,00,00,00,00,00,00,01,01,
142537655,00000200,false,Tx,0,8,00,00,00,00,80,10,1C,8C,
142537880,000002A1,false,Tx,1,8,00,00,00,00,00,00,FF,02,
142538124,000002F0,false,Tx,1,8,00,00,00,00,00,00,02,02,
142547472,00000200,false,Tx,0,8,00,00,00,00,80,10,1E,8E,
142547658,000002A1,false,Tx,1,8,00,00,00,00,00,00,FF,02,
142547870,000002F0,false,Tx,1,8,00,00,00,00,00,00,03,03,
142557568,00000200,false,Tx,0,8,00,00,00,00,80,10,00,90,
142557754,000002A1,false,Tx,1,8,00,00,00,00,00,00,FF,02,
142558023,000002F0,false,Tx,1,8,00,00,00,00,00,00,00,00,
142567073,00000200,false,Tx,0,8,00,00,00,00,80,10,02,92,
142567314,000002A1,false,Tx,1,8,00,00,00,00,00,00,FF,02,
142567562,000002F0,false,Tx,1,8,00,00,00,00,00,00,01,01,
142567870,00000523,false,Tx,0,8,00,00,00,00,00,00,00,01,
142577020,00000200,false,Tx,0,8,00,00,00,00,80,10,04,94,
142577198,000002A1,false,Tx,1,8,00,00,00,00,00,00,FF,02,
142577289,000002F0,false,Tx,1,8,00,00,00,00,00,00,02,02,
142587920,00000200,false,Tx,0,8,00,00,00,00,80,10,06,96,
142588110,000002A1,false,Tx,1,8,00,00,00,00,00,00,FF,02,
142588278,000002F0,false,Tx,1,8,00,00,00,00,00,00,03,03,
142596971,00000200,false,Tx,0,8,00,00,00,00,80,10,08,98,
142597182,000002A1,false,Tx,1,8,00,00,00,00,00,00,FF,02,
142597399,000002F0,false,Tx,1,8,00,00,00,00,00,00,00,00,
142606985,00000200,false,Tx,0,8,00,00,00,00,80,10,0A,9A,
142607161,000002A1,false,Tx,1,8,00,00,00,00,00,00,FF,02,
142607452,000002F0,false,Tx,1,8,00,00,00,00,00,00,01,01,
142617006,00000200,false,Tx,0,8,00,00,00,00,80,10,0C,9C,
142617165,000002A1,false,Tx,1,8,00,00,00,00,00,00,FF,02,
142617370,000002F0,false,Tx,1,8,00,00,00,00,00,00,02,02,
142627000,00000200,false,Tx,0,8,00,00,00,00,80,10,0E,9E,
142627194,000002A1,false,Tx,1,8,00,00,00,00,00,00,FF,02,
142627458,000002F0,false,Tx,1,8,00,00,00,00,00,00,03,03,
142637142,00000200,false,Tx,0,8,00,00,00,00,80,10,10,80,
142637277,000002A1,false,Tx,1,8,00,00,00,00,00,00,FF,02,
142637563,000002F0,false,Tx,1,8,00,00,00,00,00,00,00,00,
142664080,00000200,false,Tx,0,8,00,00,00,00,80,10,12,82,
142664270,000002A1,false,Tx,1,8,00,00,00,00,00,00,FF,02,
142664433,000002F0,false,Tx,1,8,00,00,00,00,00,00,01,01,
142666966,00000200,false,Tx,0,8,00,00,00,00,80,10,14,84,
142667158,000002A1,false,Tx,1,8,00,00,00,00,00,00,FF,02,
142667391,000002F0,false,Tx,1,8,00,00,00,00,00,00,02,02,
142676994,00000200,false,Tx,0,8,00,00,00,00,80,10,16,86,
142677189,000002A1,false,Tx,1,8,00,00,00,00,00,00,FF,02,
142677465,000002F0,false,Tx,1,8,00,00,00,00,00,00,03,03,
142677676,00000523,false,Tx,0,8,00,00,00,00,00,00,00,02,
142687743,00000200,false,Tx,0,8,00,00,00,00,80,10,18,88,
142688032,000002A1,false,Tx,1,8,00,00,00,00,00,00,FF,02,
142688191,000002F0,false,Tx,1,8,00,00,00,00,00,00,00,00,
142696971,00000200,false,Tx,0,8,00,00,00,00,80,10,1A,8A,
142697194,000002A1,false,Tx,1,8,00,00,00,00,00,00,FF,02,
142697395,000002F0,false,Tx,1,8,00,00,00,00,00,00,01,01,
142707006,00000200,false,Tx,0,8,00,00,00,00,80,10,1C,8C,
142707194,000002A1,false,Tx,1,8,00,00,00,00,00,00,FF,02,
142707448,000002F0,false,Tx,1,8,00,00,00,00,00,00,02,02,
142717515,00000200,false,Tx,0,8,00,00,00,00,80,10,1E,8E,
142717712,000002A1,false,Tx,1,8,00,00,00,00,00,00,FF,02,
142717913,000002F0,false,Tx,1,8,00,00,00,00,00,00,03,03,
142727007,00000200,false,Tx,0,8,00,00,00,00,80,10,00,90,
142727195,000002A1,false,Tx,1,8,00,00,00,00,00,00,FF,02,
142727288,000002F0,false,Tx,1,8,00,00,00,00,00,00,00,00,
142737726,00000200,false,Tx,0,8,00,00,00,00,80,10,02,92,
142737932,000002A1,false,Tx,1,8,00,00,00,00,00,00,FF,02,
142738113,000002F0,false,Tx,1,8,00,00,00,00,00,00,01,01,
142747788,00000200,false,Tx,0,8,00,00,00,00,80,10,04,94,
142747988,000002A1,false,Tx,1,8,00,00,00,00,00,00,FF,02,
142748249,000002F0,false,Tx,1,8,00,00,00,00,00,00,02,02,
142756988,00000200,false,Tx,0,8,00,00,00,00,80,10,06,96,
142757184,000002A1,false,Tx,1,8,00,00,00,00,00,00,FF,02,
142757474,000002F0,false,Tx,1,8,00,00,00,00,00,00,03,03,
142766932,00000200,false,Tx,0,8,00,00,00,00,80,10,08,98,
142767126,000002A1,false,Tx,1,8,00,00,00,00,00,00,FF,02,
142767388,000002F0,false,Tx,1,8,00,00,00,00,00,00,00,00,
142776957,00000200,false,Tx,0,8,00,00,00,00,80,10,0A,9A,
142777177,000002A1,false,Tx,1,8,00,00,00,00,00,00,FF,02,
142777432,000002F0,false,Tx,1,8,00,00,00,00,00,00,01,01,
142777730,00000523,false,Tx,0,8,00,00,00,00,00,00,00,03,
142787871,00000200,false,Tx,0,8,00,00,00,00,80,10,0C,9C,
142788067,000002A1,false,Tx,1,8,00,00,00,00,00,00,FF,02,
142788336,000002F0,false,Tx,1,8,00,00,00,00,00,00,02,02,
142797549,00000200,false,Tx,0,8,00,00,00,00,80,10,0E,9E,
142797750,000002A1,false,Tx,1,8,00,00,00,00,00,00,FF,02,
142798020,000002F0,false,Tx,1,8,00,00,00,00,00,00,03,03,
142807493,00000200,false,Tx,0,8,00,00,00,00,80,10,10,80,
142807708,000002A1,false,Tx,1,8,00,00,00,00,00,00,FF,02,
142807972,000002F0,false,Tx,1,8,00,00,00,00,00,00,00,00,
142817908,00000200,false,Tx,0,8,00,00,00,00,80,10,12,82,
142818083,000002A1,false,Tx,1,8,00,00,00,00,00,00,FF,02,
142818293,000002F0,false,Tx,1,8,00,00,00,00,00,00,01,01,
142826951,00000200,false,Tx,0,8,00,00,00,00,80,10,14,84,
142827130,000002A1,false,Tx,1,8,00,00,00,00,00,00,FF,02,
142827364,000002F0,false,Tx,1,8,00,00,00,00,00,00,02,02,
142837900,00000200,false,Tx,0,8,00,00,00,00,80,10,16,86,
142838151,000002A1,false,Tx,1,8,00,00,00,00,00,00,FF,02,
142838313,000002F0,false,Tx,1,8,00,00,00,00,00,00,03,03,
142847999,00000200,false,Tx,0,8,00,00,00,00,80,10,18,88,
142848202,000002A1,false,Tx,1,8,00,00,00,00,00,00,FF,02,
142848446,000002F0,false,Tx,1,8,00,00,00,00,00,00,00,00,
142857018,00000200,false,Tx,0,8,00,00,00,00,80,10,1A,8A,
142857201,000002A1,false,Tx,1,8,00,00,00,00,00,00,FF,02,
142857304,000002F0,false,Tx,1,8,00,00,00,00,00,00,01,01,
142867550,00000200,false,Tx,0,8,00,00,00,00,80,10,1C,8C,
142867920,000002A1,false,Tx,1,8,00,00,00,00,00,00,FF,02,
142868146,000002F0,false,Tx,1,8,00,00,00,00,00,00,02,02,
142877488,00000200,false,Tx,0,8,00,00,00,00,80,10,1E,8E,
142877679,000002A1,false,Tx,1,8,00,00,00,00,00,00,FF,02,
142877968,000002F0,false,Tx,1,8,00,00,00,00,00,00,03,03,
142878176,00000523,false,Tx,0,8,00,00,00,00,00,00,00,00,
142893871,00000200,false,Tx,0,8,00,00,00,00,80,10,00,90,
142894092,000002A1,false,Tx,1,8,00,00,00,00,00,00,FF,02,
142894303,000002F0,false,Tx,1,8,00,00,00,00,00,00,00,00,
142910310,00000200,false,Tx,0,8,00,00,00,00,80,10,02,92,
142910521,000002A1,false,Tx,1,8,00,00,00,00,00,00,FF,02,
142910765,000002F0,false,Tx,1,8,00,00,00,00,00,00,01,01,
142917507,00000200,false,Tx,0,8,00,00,00,00,80,10,04,94,
142917680,000002A1,false,Tx,1,8,00,00,00,00,00,00,FF,02,
142917933,000002F0,false,Tx,1,8,00,00,00,00,00,00,02,02,
142927265,00000200,false,Tx,0,8,00,00,00,00,80,10,06,96,
142927795,000002A1,false,Tx,1,8,00,00,00,00,00,00,FF,02,
142927864,000002F0,false,Tx,1,8,00,00,00,00,00,00,03,03,
142937823,00000200,false,Tx,0,8,00,00,00,00,80,10,08,98,
142938044,000002A1,false,Tx,1,8,00,00,00,00,00,00,FF,02,
142938227,000002F0,false,Tx,1,8,00,00,00,00,00,00,00,00,
142947287,00000200,false,Tx,0,8,00,00,00,00,80,10,0A,9A,
142947470,000002A1,false,Tx,1,8,00,00,00,00,00,00,FF,02,
142947629,000002F0,false,Tx,1,8,00,00,00,00,00,00,01,01,
142957067,00000200,false,Tx,0,8,00,00,00,00,80,10,0C,9C,
142957537,000002A1,false,Tx,1,8,00,00,00,00,00,00,FF,02,
142957737,000002F0,false,Tx,1,8,00,00,00,00,00,00,02,02,
142967695,00000200,false,Tx,0,8,00,00,00,00,80,10,0E,9E,
142967946,000002A1,false,Tx,1,8,00,00,00,00,00,00,FF,02,
142968252,000002F0,false,Tx,1,8,00,00,00,00,00,00,03,03,
142977953,00000200,false,Tx,0,8,00,00,00,00,80,10,10,80,
142978135,000002A1,false,Tx,1,8,00,00,00,00,00,00,FF,02,
142978228,000002F0,false,Tx,1,8,00,00,00,00,00,00,00,00,
142988048,00000200,false,Tx,0,8,00,00,00,00,80,10,12,82,
142988238,000002A1,false,Tx,1,8,00,00,00,00,00,00,FF,02,
142988332,000002F0,false,Tx,1,8,00,00,00,00,00,00,01,01,
142988550,00000523,false,Tx,0,8,00,00,00,00,00,00,00,01,
142996910,00000200,false,Tx,0,8,00,00,00,00,80,10,14,84,
142997404,000002A1,false,Tx,1,8,00,00,00,00,00,00,FF,02,
142997487,000002F0,false,Tx,1,8,00,00,00,00,00,00,02,02,
143007586,00000200,false,Tx,0,8,00,00,00,00,80,10,16,86,
143007773,000002A1,false,Tx,1,8,00,00,00,00,00,00,FF,02,
143008006,000002F0,false,Tx,1,8,00,00,00,00,00,00,03,03,
143016990,00000200,false,Tx,0,8,00,00,00,00,80,10,18,88,
143018097,000002A1,false,Tx,1,8,00,00,00,00,00,00,FF,02,
143018222,000002F0,false,Tx,1,8,00,00,00,00,00,00,00,00,
143027016,00000200,false,Tx,0,8,00,00,00,00,80,10,1A,8A,
143027318,000002A1,false,Tx,1,8,00,00,00,00,00,00,FF,02,
143028010,000002F0,false,Tx,1,8,00,00,00,00,00,00,01,01,
143037888,00000200,false,Tx,0,8,00,00,00,00,80,10,1C,8C,
143038081,000002A1,false,Tx,1,8,00,00,00,00,00,00,FF,02,
143038310,000002F0,false,Tx,1,8,00,00,00,00,00,00,02,02,
143048108,00000200,false,Tx,0,8,00,00,00,00,80,10,1E,8E,
143048323,000002A1,false,Tx,1,8,00,00,00,00,00,00,FF,02,
143048545,000002F0,false,Tx,1,8,00,00,00,00,00,00,03,03,
143056985,00000200,false,Tx,0,8,00,00,00,00,80,10,00,90,
143057622,000002A1,false,Tx,1,8,00,00,00,00,00,00,FF,02,
143057791,000002F0,false,Tx,1,8,00,00,00,00,00,00,00,00,
143068285,00000200,false,Tx,0,8,00,00,00,00,80,10,02,92,
143068480,000002A1,false,Tx,1,8,00,00,00,00,00,00,FF,02,
143068643,000002F0,false,Tx,1,8,00,00,00,00,00,00,01,01,
143078199,00000200,false,Tx,0,8,00,00,00,00,80,10,04,94,
143078404,000002A1,false,Tx,1,8,00,00,00,00,00,00,FF,02,
143078648,000002F0,false,Tx,1,8,00,00,00,00,00,00,02,02,
143088677,00000200,false,Tx,0,8,00,00,00,00,80,10,06,96,
143088871,000002A1,false,Tx,1,8,00,00,00,00,00,00,FF,02,
143089136,000002F0,false,Tx,1,8,00,00,00,00,00,00,03,03,
143089310,00000523,false,Tx,0,8,00,00,00,00,00,00,00,02,
143098507,00000200,false,Tx,0,8,00,00,00,00,80,10,08,98,
143098755,000002A1,false,Tx,1,8,00,00,00,00,00,00,FF,02,
143098963,000002F0,false,Tx,1,8,00,00,00,00,00,00,00,00,
143107269,00000200,false,Tx,0,8,00,00,00,00,80,10,0A,9A,
143107629,000002A1,false,Tx,1,8,00,00,00,00,00,00,FF,02,
143108142,000002F0,false,Tx,1,8,00,00,00,00,00,00,01,01,
143118011,00000200,false,Tx,0,8,00,00,00,00,80,10,0C,9C,
143118213,000002A1,false,Tx,1,8,00,00,00,00,00,00,FF,02,
143118375,000002F0,false,Tx,1,8,00,00,00,00,00,00,02,02,
143128341,00000200,false,Tx,0,8,00,00,00,00,80,10,0E,9E,
143128534,000002A1,false,Tx,1,8,00,00,00,00,00,00,FF,02,
143128775,000002F0,false,Tx,1,8,00,00,00,00,00,00,03,03,
143142992,00000200,false,Tx,0,8,00,00,00,00,80,10,10,80,
143143199,000002A1,false,Tx,1,8,00,00,00,00,00,00,FF,02,
143143432,000002F0,false,Tx,1,8,00,00,00,00,00,00,00,00,
143159784,00000200,false,Tx,0,8,00,00,00,00,80,10,12,82,
143159974,000002A1,false,Tx,1,8,00,00,00,00,00,00,FF,02,
143160242,000002F0,false,Tx,1,8,00,00,00,00,00,00,01,01,
143166972,00000200,false,Tx,0,8,00,00,00,00,80,10,14,84,
143167193,000002A1,false,Tx,1,8,00,00,00,00,00,00,FF,02,
143167396,000002F0,false,Tx,1,8,00,00,00,00,00,00,02,02,
143177029,00000200,false,Tx,0,8,00,00,00,00,80,10,16,86,
143177221,000002A1,false,Tx,1,8,00,00,00,00,00,00,FF,02,
143177469,000002F0,false,Tx,1,8,00,00,00,00,00,00,03,03,
143187064,00000200,false,Tx,0,8,00,00,00,00,80,10,18,88,
143187260,000002A1,false,Tx,1,8,00,00,00,00,00,00,FF,02,
143187513,000002F0,false,Tx,1,8,00,00,00,00,00,00,00,00,
143197578,00000200,false,Tx,0,8,00,00,00,00,80,10,1A,8A,
143198559,000002A1,false,Tx,1,8,00,00,00,00,00,00,FF,02,
143198818,000002F0,false,Tx,1,8,00,00,00,00,00,00,01,01,
143199034,00000523,false,Tx,0,8,00,00,00,00,00,00,00,03,
143207097,00000200,false,Tx,0,8,00,00,00,00,80,10,1C,8C,
143207279,000002A1,false,Tx,1,8,00,00,00,00,00,00,FF,02,
143207540,000002F0,false,Tx,1,8,00,00,00,00,00,00,02,02,
143217008,00000200,false,Tx,0,8,00,00,00,00,80,10,1E,8E,
143217212,000002A1,false,Tx,1,8,00,00,00,00,00,00,FF,02,
143217430,000002F0,false,Tx,1,8,00,00,00,00,00,00,03,03,
143227034,00000200,false,Tx,0,8,00,00,00,00,80,10,00,90,
143227225,000002A1,false,Tx,1,8,00,00,00,00,00,00,FF,02,
143227512,000002F0,false,Tx,1,8,00,00,00,00,00,00,00,00,
143238511,00000200,false,Tx,0,8,00,00,00,00,80,10,02,92,
143238715,000002A1,false,Tx,1,8,00,00,00,00,00,00,FF,02,
143238959,000002F0,false,Tx,1,8,00,00,00,00,00,00,01,01,
143246967,00000200,false,Tx,0,8,00,00,00,00,80,10,04,94,
143247179,000002A1,false,Tx,1,8,00,00,00,00,00,00,FF,02,
143247396,000002F0,false,Tx,1,8,00,00,00,00,00,00,02,02,
143257017,00000200,false,Tx,0,8,00,00,00,00,80,10,06,96,
143257210,000002A1,false,Tx,1,8,00,00,00,00,00,00,FF,02,
143257497,000002F0,false,Tx,1,8,00,00,00,00,00,00,03,03,
143266974,00000200,false,Tx,0,8,00,00,00,00,80,10,08,98,
143267182,000002A1,false,Tx,1,8,00,00,00,00,00,00,FF,02,
143267425,000002F0,false,Tx,1,8,00,00,00,00,00,00,00,00,
143277607,00000200,false,Tx,0,8,00,00,00,00,80,10,0A,9A,
143277832,000002A1,false,Tx,1,8,00,00,00,00,00,00,FF,02,
143278556,000002F0,false,Tx,1,8,00,00,00,00,00,00,01,01,
143287115,00000200,false,Tx,0,8,00,00,00,00,80,10,0C,9C,
143287306,000002A1,false,Tx,1,8,00,00,00,00,00,00,FF,02,
143287576,000002F0,false,Tx,1,8,00,00,00,00,00,00,02,02,
143297594,00000200,false,Tx,0,8,00,00,00,00,80,10,0E,9E,
143297778,000002A1,false,Tx,1,8,00,00,00,00,00,00,FF,02,
143298675,000002F0,false,Tx,1,8,00,00,00,00,00,00,03,03,
143298780,00000523,false,Tx,0,8,00,00,00,00,00,00,00,00,
143307022,00000200,false,Tx,0,8,00,00,00,00,80,10,10,80,
143307239,000002A1,false,Tx,1,8,00,00,00,00,00,00,FF,02,
143307466,000002F0,false,Tx,1,8,00,00,00,00,00,00,00,00,
143317000,00000200,false,Tx,0,8,00,00,00,00,80,10,12,82,
143317185,000002A1,false,Tx,1,8,00,00,00,00,00,00,FF,02,
143317444,000002F0,false,Tx,1,8,00,00,00,00,00,00,01,01,
143327386,00000200,false,Tx,0,8,00,00,00,00,80,10,14,84,
143327577,000002A1,false,Tx,1,8,00,00,00,00,00,00,FF,02,
143327843,000002F0,false,Tx,1,8,00,00,00,00,00,00,02,02,
143337086,00000200,false,Tx,0,8,00,00,00,00,80,10,16,86,
143337306,000002A1,false,Tx,1,8,00,00,00,00,00,00,FF,02,
143337564,000002F0,false,Tx,1,8,00,00,00,00,00,00,03,03,
143346965,00000200,false,Tx,0,8,00,00,00,00,80,10,18,88,
143347173,000002A1,false,Tx,1,8,00,00,00,00,00,00,FF,02,
143347436,000002F0,false,Tx,1,8,00,00,00,00,00,00,00,00,
143357550,00000200,false,Tx,0,8,00,00,00,00,80,10,1A,8A,
143357741,000002A1,false,Tx,1,8,00,00,00,00,00,00,FF,02,
143358004,000002F0,false,Tx,1,8,00,00,00,00,00,00,01,01,
143366944,00000200,false,Tx,0,8,00,00,00,00,80,10,1C,8C,
143367165,000002A1,false,Tx,1,8,00,00,00,00,00,00,FF,02,
143367384,000002F0,false,Tx,1,8,00,00,00,00,00,00,02,02,
143376948,00000200,false,Tx,0,8,00,00,00,00,80,10,1E,8E,
143377142,000002A1,false,Tx,1,8,00,00,00,00,00,00,FF,02,
143377408,000002F0,false,Tx,1,8,00,00,00,00,00,00,03,03,
143386991,00000200,false,Tx,0,8,00,00,00,00,80,10,00,90,
143387207,000002A1,false,Tx,1,8,00,00,00,00,00,00,FF,02,
143387527,000002F0,false,Tx,1,8,00,00,00,00,00,00,00,00,
143409581,00000200,false,Tx,0,8,00,00,00,00,80,10,02,92,
143409774,000002A1,false,Tx,1,8,00,00,00,00,00,00,FF,02,
143409997,000002F0,false,Tx,1,8,00,00,00,00,00,00,01,01,
143410214,00000523,false,Tx,0,8,00,00,00,00,00,00,00,01,
143416997,00000200,false,Tx,0,8,00,00,00,00,80,10,04,94,
143417214,000002A1,false,Tx,1,8,00,00,00,00,00,00,FF,02,
143417434,000002F0,false,Tx,1,8,00,00,00,00,00,00,02,02,
143427602,00000200,false,Tx,0,8,00,00,00,00,80,10,06,96,
143427788,000002A1,false,Tx,1,8,00,00,00,00,00,00,FF,02,
143428057,000002F0,false,Tx,1,8,00,00,00,00,00,00,03,03,
143437333,00000200,false,Tx,0,8,00,00,00,00,80,10,08,98,
143437551,000002A1,false,Tx,1,8,00,00,00,00,00,00,FF,02,
143437714,000002F0,false,Tx,1,8,00,00,00,00,00,00,00,00,
143446994,00000200,false,Tx,0,8,00,00,00,00,80,10,0A,9A,
143447214,000002A1,false,Tx,1,8,00,00,00,00,00,00,FF,02,
143447430,000002F0,false,Tx,1,8,00,00,00,00,00,00,01,01,
143457000,00000200,false,Tx,0,8,00,00,00,00,80,10,0C,9C,
143457220,000002A1,false,Tx,1,8,00,00,00,00,00,00,FF,02,
143457458,000002F0,false,Tx,1,8,00,00,00,00,00,00,02,02,
143466968,00000200,false,Tx,0,8,00,00,00,00,80,10,0E,9E,
143467172,000002A1,false,Tx,1,8,00,00,00,00,00,00,FF,02,
143467409,000002F0,false,Tx,1,8,00,00,00,00,00,00,03,03,
143476970,00000200,false,Tx,0,8,00,00,00,00,80,10,10,80,
143477171,000002A1,false,Tx,1,8,00,00,00,00,00,00,FF,02,
143477434,000002F0,false,Tx,1,8,00,00,00,00,00,00,00,00,
143487013,00000200,false,Tx,0,8,00,00,00,00,80,10,12,82,
143487231,000002A1,false,Tx,1,8,00,00,00,00,00,00,FF,02,
143487474,000002F0,false,Tx,1,8,00,00,00,00,00,00,01,01,
143497167,00000200,false,Tx,0,8,00,00,00,00,80,10,14,84,
143497366,000002A1,false,Tx,1,8,00,00,00,00,00,00,FF,02,
143497604,000002F0,false,Tx,1,8,00,00,00,00,00,00,02,02,
143507812,00000200,false,Tx,0,8,00,00,00,00,80,10,16,86,
143508044,000002A1,false,Tx,1,8,00,00,00,00,00,00,FF,02,
143508253,000002F0,false,Tx,1,8,00,00,00,00,00,00,03,03,
143508521,00000523,false,Tx,0,8,00,00,00,00,00,00,00,02,
143517940,00000200,false,Tx,0,8,00,00,00,00,80,10,18,88,
143518046,000002A1,false,Tx,1,8,00,00,00,00,00,00,FF,02,
143518123,000002F0,false,Tx,1,8,00,00,00,00,00,00,00,00,
143527897,00000200,false,Tx,0,8,00,00,00,00,80,10,1A,8A,
143528054,000002A1,false,Tx,1,8,00,00,00,00,00,00,FF,02,
143528294,000002F0,false,Tx,1,8,00,00,00,00,00,00,01,01,
143537148,00000200,false,Tx,0,8,00,00,00,00,80,10,1C,8C,
143537341,000002A1,false,Tx,1,8,00,00,00,00,00,00,FF,02,
143537512,000002F0,false,Tx,1,8,00,00,00,00,00,00,02,02,
143547141,00000200,false,Tx,0,8,00,00,00,00,80,10,1E,8E,
143547375,000002A1,false,Tx,1,8,00,00,00,00,00,00,FF,02,
143547539,000002F0,false,Tx,1,8,00,00,00,00,00,00,03,03,
143557638,00000200,false,Tx,0,8,00,00,00,00,80,10,00,90,
143557848,000002A1,false,Tx,1,8,00,00,00,00,00,00,FF,02,
143558057,000002F0,false,Tx,1,8,00,00,00,00,00,00,00,00,
143566930,00000200,false,Tx,0,8,00,00,00,00,80,10,02,92,
143567135,000002A1,false,Tx,1,8,00,00,00,00,00,00,FF,02,
143567360,000002F0,false,Tx,1,8,00,00,00,00,00,00,01,01,
143576950,00000200,false,Tx,0,8,00,00,00,00,80,10,04,94,
143577132,000002A1,false,Tx,1,8,00,00,00,00,00,00,FF,02,
143577286,000002F0,false,Tx,1,8,00,00,00,00,00,00,02,02,
143587553,00000200,false,Tx,0,8,00,00,00,00,80,10,06,96,
143587732,000002A1,false,Tx,1,8,00,00,00,00,00,00,FF,02,
143587842,000002F0,false,Tx,1,8,00,00,00,00,00,00,03,03,
143597090,00000200,false,Tx,0,8,00,00,00,00,80,10,08,98,
143597316,000002A1,false,Tx,1,8,00,00,00,00,00,00,FF,02,
143597537,000002F0,false,Tx,1,8,00,00,00,00,00,00,00,00,
143607173,00000200,false,Tx,0,8,00,00,00,00,80,10,0A,9A,
143607375,000002A1,false,Tx,1,8,00,00,00,00,00,00,FF,02,
143607501,000002F0,false,Tx,1,8,00,00,00,00,00,00,01,01,
143607742,00000523,false,Tx,0,8,00,00,00,00,00,00,00,03,
143617488,00000200,false,Tx,0,8,00,00,00,00,80,10,0C,9C,
143617671,000002A1,false,Tx,1,8,00,00,00,00,00,00,FF,02,
143617923,000002F0,false,Tx,1,8,00,00,00,00,00,00,02,02,
143626929,00000200,false,Tx,0,8,00,00,00,00,80,10,0E,9E,
143627145,000002A1,false,Tx,1,8,00,00,00,00,00,00,FF,02,
143627395,000002F0,false,Tx,1,8,00,00,00,00,00,00,03,03,
143637741,00000200,false,Tx,0,8,00,00,00,00,80,10,10,80,
143637971,000002A1,false,Tx,1,8,00,00,00,00,00,00,FF,02,
143638258,000002F0,false,Tx,1,8,00,00,00,00,00,00,00,00,
143658485,00000200,false,Tx,0,8,00,00,00,00,80,10,12,82,
143659110,000002A1,false,Tx,1,8,00,00,00,00,00,00,FF,02,
143659225,000002F0,false,Tx,1,8,00,00,00,00,00,00,01,01,
143667609,00000200,false,Tx,0,8,00,00,00,00,80,10,14,84,
143667825,000002A1,false,Tx,1,8,00,00,00,00,00,00,FF,02,
143668068,000002F0,false,Tx,1,8,00,00,00,00,00,00,02,02,
143677115,00000200,false,Tx,0,8,00,00,00,00,80,10,16,86,
143677320,000002A1,false,Tx,1,8,00,00,00,00,00,00,FF,02,
143677606,000002F0,false,Tx,1,8,00,00,00,00,00,00,03,03,
143687813,00000200,false,Tx,0,8,00,00,00,00,80,10,18,88,
143688038,000002A1,false,Tx,1,8,00,00,00,00,00,00,FF,02,
143688203,000002F0,false,Tx,1,8,00,00,00,00,00,00,00,00,
143696982,00000200,false,Tx,0,8,00,00,00,00,80,10,1A,8A,
143697183,000002A1,false,Tx,1,8,00,00,00,00,00,00,FF,02,
143697398,000002F0,false,Tx,1,8,00,00,00,00,00,00,01,01,
143707036,00000200,false,Tx,0,8,00,00,00,00,80,10,1C,8C,
143707247,000002A1,false,Tx,1,8,00,00,00,00,00,00,FF,02,
143707488,000002F0,false,Tx,1,8,00,00,00,00,00,00,02,02,
143717665,00000200,false,Tx,0,8,00,00,00,00,80,10,1E,8E,
143717867,000002A1,false,Tx,1,8,00,00,00,00,00,00,FF,02,
143718140,000002F0,false,Tx,1,8,00,00,00,00,00,00,03,03,
143718355,00000523,false,Tx,0,8,00,00,00,00,00,00,00,00,
143727032,00000200,false,Tx,0,8,00,00,00,00,80,10,00,90,
143727233,000002A1,false,Tx,1,8,00,00,00,00,00,00,FF,02,
143727505,000002F0,false,Tx,1,8,00,00,00,00,00,00,00,00,
143737957,00000200,false,Tx,0,8,00,00,00,00,80,10,02,92,
143738160,000002A1,false,Tx,1,8,00,00,00,00,00,00,FF,02,
143738355,000002F0,false,Tx,1,8,00,00,00,00,00,00,01,01,
143747654,00000200,false,Tx,0,8,00,00,00,00,80,10,04,94,
143747848,000002A1,false,Tx,1,8,00,00,00,00,00,00,FF,02,
143748086,000002F0,false,Tx,1,8,00,00,00,00,00,00,02,02,
143756998,00000200,false,Tx,0,8,00,00,00,00,80,10,06,96,
143757187,000002A1,false,Tx,1,8,00,00,00,00,00,00,FF,02,
143757321,000002F0,false,Tx,1,8,00,00,00,00,00,00,03,03,
143767360,00000200,false,Tx,0,8,00,00,00,00,80,10,08,98,
143767562,000002A1,false,Tx,1,8,00,00,00,00,00,00,FF,02,
143767810,000002F0,false,Tx,1,8,00,00,00,00,00,00,00,00,
143777050,00000200,false,Tx,0,8,00,00,00,00,80,10,0A,9A,
143777345,000002A1,false,Tx,1,8,00,00,00,00,00,00,FF,02,
143777567,000002F0,false,Tx,1,8,00,00,00,00,00,00,01,01,
143787558,00000200,false,Tx,0,8,00,00,00,00,80,10,0C,9C,
143787750,000002A1,false,Tx,1,8,00,00,00,00,00,00,FF,02,
143788033,000002F0,false,Tx,1,8,00,00,00,00,00,00,02,02,
143797528,00000200,false,Tx,0,8,00,00,00,00,80,10,0E,9E,
143797742,000002A1,false,Tx,1,8,00,00,00,00,00,00,FF,02,
143797961,000002F0,false,Tx,1,8,00,00,00,00,00,00,03,03,
143807896,00000200,false,Tx,0,8,00,00,00,00,80,10,10,80,
143808112,000002A1,false,Tx,1,8,00,00,00,00,00,00,FF,02,
143808380,000002F0,false,Tx,1,8,00,00,00,00,00,00,00,00,
143816970,00000200,false,Tx,0,8,00,00,00,00,80,10,12,82,
143817174,000002A1,false,Tx,1,8,00,00,00,00,00,00,FF,02,
143817395,000002F0,false,Tx,1,8,00,00,00,00,00,00,01,01,
143817572,00000523,false,Tx,0,8,00,00,00,00,00,00,00,01,
143827747,00000200,false,Tx,0,8,00,00,00,00,80,10,14,84,
143828056,000002A1,false,Tx,1,8,00,00,00,00,00,00,FF,02,
