Time Stamp,ID,Extended,Dir,Bus,LEN,D1,D2,D3,D4,D5,D6,D7,D8
172750,00000316,false,Rx,0,8,04,00,C0,12,00,00,00,00,
172995,00000329,false,Rx,0,8,11,7B,C5,00,00,00,00,00,
173243,000002A1,false,Rx,0,8,00,00,00,00,00,00,00,00,
173391,0000043B,false,Rx,0,3,46,00,00,00,00,00,00,00,
173628,00000545,false,Rx,0,8,00,19,0B,00,7E,10,00,18,
182755,00000316,false,Rx,0,8,04,00,C0,12,00,00,00,00,
182990,00000329,false,Rx,0,8,11,7B,C5,00,00,00,00,00,
183238,000002A1,false,Rx,0,8,00,00,00,00,00,00,00,00,
183397,0000043B,false,Rx,0,3,46,00,00,00,00,00,00,00,
183634,00000545,false,Rx,0,8,00,1A,0B,00,7E,10,00,18,
192750,00000316,false,Rx,0,8,04,00,C0,12,00,00,00,00,
192994,00000329,false,Rx,0,8,11,7B,C5,00,00,00,00,00,
193243,000002A1,false,Rx,0,8,00,00,00,00,00,00,00,00,
193391,0000043B,false,Rx,0,3,46,00,00,00,00,00,00,00,
193628,00000545,false,Rx,0,8,00,1B,0B,00,7E,10,00,18,
202756,00000316,false,Rx,0,8,04,00,C0,12,00,00,00,00,
202990,00000329,false,Rx,0,8,11,7B,C5,00,00,00,00,00,
203238,000002A1,false,Rx,0,8,00,00,00,00,00,00,00,00,
203396,0000043B,false,Rx,0,3,46,00,00,00,00,00,00,00,
203634,00000545,false,Rx,0,8,00,1C,0B,00,7E,10,00,18,
212750,00000316,false,Rx,0,8,04,00,C0,12,00,00,00,00,
212994,00000329,false,Rx,0,8,11,7B,C5,00,00,00,00,00,
213243,000002A1,false,Rx,0,8,00,00,00,00,00,00,00,00,
213391,0000043B,false,Rx,0,3,46,00,00,00,00,00,00,00,
213639,00000545,false,Rx,0,8,00,1D,0B,00,7E,10,00,18,
217386,00000285,false,Rx,0,8,00,00,00,00,00,00,00,00,
217631,00000286,false,Rx,0,8,0F,6E,00,00,00,00,00,00,
217879,00000523,false,Rx,0,8,00,00,00,00,00,00,00,00,
222752,00000316,false,Rx,0,8,04,00,C0,12,00,00,00,00,
222996,00000329,false,Rx,0,8,11,7B,C5,00,00,00,00,00,
223245,000002A1,false,Rx,0,8,00,00,00,00,00,00,00,00,
223393,0000043B,false,Rx,0,3,46,00,00,00,00,00,00,00,
223630,00000545,false,Rx,0,8,00,1E,0B,00,7E,10,00,18,
232756,00000316,false,Rx,0,8,04,00,C0,12,00,00,00,00,
232990,00000329,false,Rx,0,8,86,7B,C5,00,00,00,00,00,
233238,000002A1,false,Rx,0,8,00,00,00,00,00,00,00,00,
233397,0000043B,false,Rx,0,3,46,00,00,00,00,00,00,00,
233634,00000545,false,Rx,0,8,00,1F,0B,00,7E,10,00,18,
242750,00000316,false,Rx,0,8,04,00,C0,12,00,00,00,00,
242994,00000329,false,Rx,0,8,86,7B,C5,00,00,00,00,00,
243244,000002A1,false,Rx,0,8,00,00,00,00,00,00,00,00,
243392,0000043B,false,Rx,0,3,46,00,00,00,00,00,00,00,
243629,00000545,false,Rx,0,8,00,20,0B,00,7E,10,00,18,
252756,00000316,false,Rx,0,8,04,00,C0,12,00,00,00,00,
252990,00000329,false,Rx,0,8,86,7B,C5,00,00,00,00,00,
253240,000002F0,false,Rx,0,8,00,00,00,00,00,00,00,00,
253500,00000200,false,Rx,0,8,00,00,00,00,00,00,00,00,
253748,000002A1,false,Rx,0,8,00,00,00,00,00,00,00,00,
253894,0000043B,false,Rx,0,3,46,00,00,00,00,00,00,00,
254132,00000545,false,Rx,0,8,00,21,0B,00,7E,10,00,18,
262757,00000316,false,Rx,0,8,04,00,C0,12,00,00,00,00,
262991,00000329,false,Rx,0,8,86,7B,C5,00,00,00,00,00,
263241,000002A1,false,Rx,0,8,00,00,00,00,00,00,00,00,
263398,0000043B,false,Rx,0,3,46,00,00,00,00,00,00,00,
263635,00000545,false,Rx,0,8,00,22,0B,00,7E,10,00,18,
272751,00000316,false,Rx,0,8,04,00,C0,12,00,00,00,00,
272996,00000329,false,Rx,0,8,86,7B,C5,00,00,00,00,00,
273245,000002A1,false,Rx,0,8,00,00,00,00,00,00,00,00,
273392,0000043B,false,Rx,0,3,46,00,00,00,00,00,00,00,
273629,00000545,false,Rx,0,8,00,23,0B,00,7E,10,00,18,
282756,00000316,false,Rx,0,8,04,00,C0,12,00,00,00,00,
282990,00000329,false,Rx,0,8,86,7B,C5,00,00,00,00,00,
283240,000002A1,false,Rx,0,8,00,00,00,00,00,00,00,00,
283397,0000043B,false,Rx,0,3,46,00,00,00,00,00,00,00,
283634,00000545,false,Rx,0,8,00,24,0B,00,7E,10,00,18,
292760,00000316,false,Rx,0,8,04,00,C0,12,00,00,00,00,
292994,00000329,false,Rx,0,8,86,7B,C5,00,00,00,00,00,
293244,000002A1,false,Rx,0,8,00,00,00,00,00,00,00,00,
293391,0000043B,false,Rx,0,3,46,00,00,00,00,00,00,00,
293639,00000545,false,Rx,0,8,00,25,0B,00,7E,10,00,18,
302756,00000316,false,Rx,0,8,04,00,C0,12,00,00,00,00,
303000,00000329,false,Rx,0,8,D9,7B,C5,00,00,00,00,00,
303250,000002A1,false,Rx,0,8,00,00,00,00,00,00,00,00,
303397,0000043B,false,Rx,0,3,46,00,00,00,00,00,00,00,
303634,00000545,false,Rx,0,8,00,26,0B,00,7E,10,00,18,
312760,00000316,false,Rx,0,8,04,00,C0,12,00,00,00,00,
312995,00000329,false,Rx,0,8,D9,7B,C5,00,00,00,00,00,
313244,000002A1,false,Rx,0,8,00,00,00,00,00,00,00,00,
313402,0000043B,false,Rx,0,3,46,00,00,00,00,00,00,00,
313639,00000545,false,Rx,0,8,00,27,0B,00,7E,10,00,18,
317397,00000285,false,Rx,0,8,00,00,00,00,00,00,00,00,
317642,00000286,false,Rx,0,8,0F,6E,00,00,00,00,00,00,
317891,00000523,false,Rx,0,8,00,00,00,00,00,00,00,00,
322762,00000316,false,Rx,0,8,04,00,C0,12,00,00,00,00,
322996,00000329,false,Rx,0,8,D9,7B,C5,00,00,00,00,00,
323246,000002A1,false,Rx,0,8,00,00,00,00,00,00,00,00,
323403,0000043B,false,Rx,0,3,46,00,00,00,00,00,00,00,
323640,00000545,false,Rx,0,8,00,28,0B,00,7E,10,00,18,
332755,00000316,false,Rx,0,8,04,00,C0,12,00,00,00,00,
332999,00000329,false,Rx,0,8,D9,7B,C5,00,00,00,00,00,
333249,000002A1,false,Rx,0,8,00,00,00,00,00,00,00,00,
333406,0000043B,false,Rx,0,3,46,00,00,00,00,00,00,00,
333633,00000545,false,Rx,0,8,00,29,0B,00,7E,10,00,18,
342761,00000316,false,Rx,0,8,04,00,C0,12,00,00,00,00,
343005,00000329,false,Rx,0,8,D9,7B,C5,00,00,00,00,00,
343255,000002A1,false,Rx,0,8,00,00,00,00,00,00,00,00,
343402,0000043B,false,Rx,0,3,46,00,00,00,00,00,00,00,
343639,00000545,false,Rx,0,8,00,2A,0B,00,7E,10,00,18,
352756,00000316,false,Rx,0,8,04,00,C0,12,00,00,00,00,
0,00000329,false,Rx,0,8,D9,7B,C5,00,00,00,00,00,
250,000002A1,false,Rx,0,8,00,00,00,00,00,00,00,00,
407,0000043B,false,Rx,0,3,46,00,00,00,00,00,00,00,
645,00000545,false,Rx,0,8,00,2B,0B,00,7E,10,00,18,
9762,00000316,false,Rx,0,8,04,00,C0,12,00,00,00,00,
10006,00000329,false,Rx,0,8,D9,7B,C5,00,00,00,00,00,
10256,000002F0,false,Rx,0,8,00,00,00,00,00,00,00,00,
10506,00000200,false,Rx,0,8,00,00,00,00,00,00,00,00,
10754,000002A1,false,Rx,0,8,00,00,00,00,00,00,00,00,
10911,0000043B,false,Rx,0,3,46,00,00,00,00,00,00,00,
11148,00000545,false,Rx,0,8,00,2C,0B,00,7E,10,00,18,
19764,00000316,false,Rx,0,8,04,00,C0,12,00,00,00,00,
19998,00000329,false,Rx,0,8,11,7B,C5,00,00,00,00,00,
20248,000002A1,false,Rx,0,8,00,00,00,00,00,00,00,00,
20405,0000043B,false,Rx,0,3,46,00,00,00,00,00,00,00,
20642,00000545,false,Rx,0,8,00,2D,0B,00,7E,10,00,18,
29758,00000316,false,Rx,0,8,04,00,C0,12,00,00,00,00,
30003,00000329,false,Rx,0,8,11,7B,C5,00,00,00,00,00,
30252,000002A1,false,Rx,0,8,00,00,00,00,00,00,00,00,
30399,0000043B,false,Rx,0,3,46,00,00,00,00,00,00,00,
30647,00000545,false,Rx,0,8,00,2E,0B,00,7E,10,00,18,
39764,00000316,false,Rx,0,8,04,00,C0,12,00,00,00,00,
39999,00000329,false,Rx,0,8,11,7B,C5,00,00,00,00,00,
40248,000002A1,false,Rx,0,8,00,00,00,00,00,00,00,00,
40405,0000043B,false,Rx,0,3,46,00,00,00,00,00,00,00,
40642,00000545,false,Rx,0,8,00,2F,0B,00,7E,10,00,18,
49758,00000316,false,Rx,0,8,04,00,C0,12,00,00,00,00,
50004,00000329,false,Rx,0,8,11,7B,C5,00,00,00,00,00,
50252,000002A1,false,Rx,0,8,00,00,00,00,00,00,00,00,
50399,0000043B,false,Rx,0,3,46,00,00,00,00,00,00,00,
50647,00000545,false,Rx,0,8,00,30,0B,00,7E,10,00,18,
59764,00000316,false,Rx,0,8,04,00,C0,12,00,00,00,00,
60000,00000329,false,Rx,0,8,11,7B,C5,00,00,00,00,00,
60248,000002A1,false,Rx,0,8,00,00,00,00,00,00,00,00,
60405,0000043B,false,Rx,0,3,46,00,00,00,00,00,00,00,
60643,00000545,false,Rx,0,8,00,31,0B,00,7E,10,00,18,
64401,00000285,false,Rx,0,8,00,00,00,00,00,00,00,00,
64646,00000286,false,Rx,0,8,0F,6E,00,00,00,00,00,00,
64895,00000523,false,Rx,0,8,00,00,00,00,00,00,00,00,
69766,00000316,false,Rx,0,8,04,00,C0,12,00,00,00,00,
70001,00000329,false,Rx,0,8,11,7B,C5,00,00,00,00,00,
70250,000002A1,false,Rx,0,8,00,00,00,00,00,00,00,00,
70407,0000043B,false,Rx,0,3,46,00,00,00,00,00,00,00,
70645,00000545,false,Rx,0,8,00,32,0B,00,7E,10,00,18,
79762,00000316,false,Rx,0,8,04,00,C0,12,00,00,00,00,
79997,00000329,false,Rx,0,8,11,7B,C5,00,00,00,00,00,
80256,000002A1,false,Rx,0,8,00,00,00,00,00,00,00,00,
80403,0000043B,false,Rx,0,3,46,00,00,00,00,00,00,00,
80640,00000545,false,Rx,0,8,00,33,0B,00,7E,10,00,18,
89767,00000316,false,Rx,0,8,04,00,C0,12,00,00,00,00,
90002,00000329,false,Rx,0,8,11,7B,C5,00,00,00,00,00,
90250,000002A1,false,Rx,0,8,00,00,00,00,00,00,00,00,
90408,0000043B,false,Rx,0,3,46,00,00,00,00,00,00,00,
90645,00000545,false,Rx,0,8,00,34,0B,00,7E,10,00,18,
99762,00000316,false,Rx,0,8,04,00,C0,12,00,00,00,00,
99997,00000329,false,Rx,0,8,86,7B,C5,00,00,00,00,00,
100256,000002A1,false,Rx,0,8,00,00,00,00,00,00,00,00,
100403,0000043B,false,Rx,0,3,46,00,00,00,00,00,00,00,
100640,00000545,false,Rx,0,8,00,35,0B,00,7E,10,00,18,
109765,00000316,false,Rx,0,8,04,00,C0,12,00,00,00,00,
110001,00000329,false,Rx,0,8,86,7B,C5,00,00,00,00,00,
110249,000002A1,false,Rx,0,8,00,00,00,00,00,00,00,00,
110406,0000043B,false,Rx,0,3,46,00,00,00,00,00,00,00,
110644,00000545,false,Rx,0,8,00,36,0B,00,7E,10,00,18,
119760,00000316,false,Rx,0,8,04,00,C0,12,00,00,00,00,
120005,00000329,false,Rx,0,8,86,7B,C5,00,00,00,00,00,
120254,000002F0,false,Rx,0,8,00,00,00,00,00,00,00,00,
120504,00000200,false,Rx,0,8,00,00,00,00,00,00,00,00,
120753,000002A1,false,Rx,0,8,00,00,00,00,00,00,00,00,
120909,0000043B,false,Rx,0,3,46,00,00,00,00,00,00,00,
121146,00000545,false,Rx,0,8,00,37,0B,00,7E,10,00,18,
129762,00000316,false,Rx,0,8,04,00,C0,12,00,00,00,00,
130007,00000329,false,Rx,0,8,86,7B,C5,00,00,00,00,00,
130256,000002A1,false,Rx,0,8,00,00,00,00,00,00,00,00,
130402,0000043B,false,Rx,0,3,46,00,00,00,00,00,00,00,
130651,00000545,false,Rx,0,8,00,38,0B,00,7E,10,00,18,
139765,00000316,false,Rx,0,8,04,00,C0,12,00,00,00,00,
140001,00000329,false,Rx,0,8,86,7B,C5,00,00,00,00,00,
140249,000002A1,false,Rx,0,8,00,00,00,00,00,00,00,00,
140406,0000043B,false,Rx,0,3,46,00,00,00,00,00,00,00,
140645,00000545,false,Rx,0,8,00,39,0B,00,7E,10,00,18,
149770,00000316,false,Rx,0,8,04,00,C0,12,00,00,00,00,
150005,00000329,false,Rx,0,8,86,7B,C5,00,00,00,00,00,
150254,000002A1,false,Rx,0,8,00,00,00,00,00,00,00,00,
150411,0000043B,false,Rx,0,3,46,00,00,00,00,00,00,00,
150639,00000545,false,Rx,0,8,00,3A,0B,00,7E,10,00,18,
159764,00000316,false,Rx,0,8,04,00,C0,12,00,00,00,00,
160000,00000329,false,Rx,0,8,86,7B,C5,00,00,00,00,00,
160259,000002A1,false,Rx,0,8,00,00,00,00,00,00,00,00,
160406,0000043B,false,Rx,0,3,46,00,00,00,00,00,00,00,
160644,00000545,false,Rx,0,8,00,3B,0B,00,7E,10,00,18,
164401,00000285,false,Rx,0,8,00,00,00,00,00,00,00,00,
164646,00000286,false,Rx,0,8,0F,6E,00,00,00,00,00,00,
164895,00000523,false,Rx,0,8,00,00,00,00,00,00,00,00,
169765,00000316,false,Rx,0,8,04,00,C0,12,00,00,00,00,
170011,00000329,false,Rx,0,8,D9,7B,C5,00,00,00,00,00,
170259,000002A1,false,Rx,0,8,00,00,00,00,00,00,00,00,
170406,0000043B,false,Rx,0,3,46,00,00,00,00,00,00,00,
170655,00000545,false,Rx,0,8,00,3C,0B,00,7E,10,00,18,
179770,00000316,false,Rx,0,8,04,00,C0,12,00,00,00,00,
180005,00000329,false,Rx,0,8,D9,7B,C5,00,00,00,00,00,
180264,000002A1,false,Rx,0,8,00,00,00,00,00,00,00,00,
180411,0000043B,false,Rx,0,3,46,00,00,00,00,00,00,00,
180649,00000545,false,Rx,0,8,00,3D,0B,00,7E,10,00,18,
189766,00000316,false,Rx,0,8,04,00,C0,12,00,00,00,00,
190010,00000329,false,Rx,0,8,D9,7B,C5,00,00,00,00,00,
190259,000002A1,false,Rx,0,8,00,00,00,00,00,00,00,00,
190416,0000043B,false,Rx,0,3,46,00,00,00,00,00,00,00,
190654,00000545,false,Rx,0,8,00,3E,0B,00,7E,10,00,18,
199771,00000316,false,Rx,0,8,04,00,C0,12,00,00,00,00,
200015,00000329,false,Rx,0,8,D9,7B,C5,00,00,00,00,00,
200263,000002A1,false,Rx,0,8,00,00,00,00,00,00,00,00,
200410,0000043B,false,Rx,0,3,46,00,00,00,00,00,00,00,
200649,00000545,false,Rx,0,8,00,3F,0B,00,7E,10,00,18,
209774,00000316,false,Rx,0,8,04,00,C0,12,00,00,00,00,
210008,00000329,false,Rx,0,8,D9,7B,C5,00,00,00,00,00,
210257,000002A1,false,Rx,0,8,00,00,00,00,00,00,00,00,
210414,0000043B,false,Rx,0,3,46,00,00,00,00,00,00,00,
210652,00000545,false,Rx,0,8,00,40,0B,00,7E,10,00,18,
219768,00000316,false,Rx,0,8,04,00,C0,12,00,00,00,00,
220012,00000329,false,Rx,0,8,D9,7B,C5,00,00,00,00,00,
220261,000002A1,false,Rx,0,8,00,00,00,00,00,00,00,00,
220418,0000043B,false,Rx,0,3,46,00,00,00,00,00,00,00,
220656,00000545,false,Rx,0,8,00,41,0B,00,7E,10,00,18,
229772,00000316,false,Rx,0,8,04,00,C0,12,00,00,00,00,
230016,00000329,false,Rx,0,8,D9,7B,C5,00,00,00,00,00,
230265,000002F0,false,Rx,0,8,00,00,00,00,00,00,00,00,
230516,00000200,false,Rx,0,8,00,00,00,00,00,00,00,00,
230764,000002A1,false,Rx,0,8,00,00,00,00,00,00,00,00,
230920,0000043B,false,Rx,0,3,46,00,00,00,00,00,00,00,
231158,00000545,false,Rx,0,8,00,42,0B,00,7E,10,00,18,
239773,00000316,false,Rx,0,8,04,00,C0,12,00,00,00,00,
240007,00000329,false,Rx,0,8,11,7B,C5,00,00,00,00,00,
240266,000002A1,false,Rx,0,8,00,00,00,00,00,00,00,00,
240413,0000043B,false,Rx,0,3,46,00,00,00,00,00,00,00,
240651,00000545,false,Rx,0,8,00,43,0B,00,7E,10,00,18,
249767,00000316,false,Rx,0,8,04,00,C0,12,00,00,00,00,
250011,00000329,false,Rx,0,8,11,7B,C5,00,00,00,00,00,
250260,000002A1,false,Rx,0,8,00,00,00,00,00,00,00,00,
250407,0000043B,false,Rx,0,3,46,00,00,00,00,00,00,00,
250656,00000545,false,Rx,0,8,00,44,0B,00,7E,10,00,18,
259773,00000316,false,Rx,0,8,04,00,C0,12,00,00,00,00,
260017,00000329,false,Rx,0,8,11,7B,C5,00,00,00,00,00,
260266,000002A1,false,Rx,0,8,00,00,00,00,00,00,00,00,
260414,0000043B,false,Rx,0,3,46,00,00,00,00,00,00,00,
260651,00000545,false,Rx,0,8,00,45,0B,00,7E,10,00,18,
264409,00000285,false,Rx,0,8,00,00,00,00,00,00,00,00,
264653,00000286,false,Rx,0,8,0F,6E,00,00,00,00,00,00,
264902,00000523,false,Rx,0,8,00,00,00,00,00,00,00,00,
269776,00000316,false,Rx,0,8,04,00,C0,12,00,00,00,00,
270010,00000329,false,Rx,0,8,11,7B,C5,00,00,00,00,00,
270258,000002A1,false,Rx,0,8,00,00,00,00,00,00,00,00,
270416,0000043B,false,Rx,0,3,46,00,00,00,00,00,00,00,
270654,00000545,false,Rx,0,8,00,46,0B,00,7E,10,00,18,
279772,00000316,false,Rx,0,8,04,00,C0,12,00,00,00,00,
280016,00000329,false,Rx,0,8,11,7B,C5,00,00,00,00,00,
280265,000002A1,false,Rx,0,8,00,00,00,00,00,00,00,00,
280413,0000043B,false,Rx,0,3,46,00,00,00,00,00,00,00,
280650,00000545,false,Rx,0,8,00,47,0B,00,7E,10,00,18,
289776,00000316,false,Rx,0,8,04,00,C0,12,00,00,00,00,
290010,00000329,false,Rx,0,8,11,7B,C5,00,00,00,00,00,
290259,000002A1,false,Rx,0,8,00,00,00,00,00,00,00,00,
290417,0000043B,false,Rx,0,3,46,00,00,00,00,00,00,00,
290654,00000545,false,Rx,0,8,00,48,0B,00,7E,10,00,18,
299771,00000316,false,Rx,0,8,04,00,C0,12,00,00,00,00,
300015,00000329,false,Rx,0,8,11,7B,C5,00,00,00,00,00,
300264,000002A1,false,Rx,0,8,00,00,00,00,00,00,00,00,
300412,0000043B,false,Rx,0,3,46,00,00,00,00,00,00,00,
300659,00000545,false,Rx,0,8,00,49,0B,00,7E,10,00,18,
309776,00000316,false,Rx,0,8,04,00,C0,12,00,00,00,00,
310010,00000329,false,Rx,0,8,11,7B,C5,00,00,00,00,00,
310259,000002A1,false,Rx,0,8,00,00,00,00,00,00,00,00,
310417,0000043B,false,Rx,0,3,46,00,00,00,00,00,00,00,
310654,00000545,false,Rx,0,8,00,4A,0B,00,7E,10,00,18,
319771,00000316,false,Rx,0,8,04,00,C0,12,00,00,00,00,
320016,00000329,false,Rx,0,8,86,7B,C5,00,00,00,00,00,
320264,000002A1,false,Rx,0,8,00,00,00,00,00,00,00,00,
320412,0000043B,false,Rx,0,3,46,00,00,00,00,00,00,00,
320649,00000545,false,Rx,0,8,00,4B,0B,00,7E,10,00,18,
329776,00000316,false,Rx,0,8,04,00,C0,12,00,00,00,00,
330010,00000329,false,Rx,0,8,86,7B,C5,00,00,00,00,00,
330259,000002A1,false,Rx,0,8,00,00,00,00,00,00,00,00,
330417,0000043B,false,Rx,0,3,46,00,00,00,00,00,00,00,
330654,00000545,false,Rx,0,8,00,4C,0B,00,7E,10,00,18,
339771,00000316,false,Rx,0,8,04,00,C0,12,00,00,00,00,
340015,00000329,false,Rx,0,8,86,7B,C5,00,00,00,00,00,
340264,000002F0,false,Rx,0,8,00,00,00,00,00,00,00,00,
340514,00000200,false,Rx,0,8,00,00,00,00,00,00,00,00,
340763,000002A1,false,Rx,0,8,00,00,00,00,00,00,00,00,
340919,0000043B,false,Rx,0,3,46,00,00,00,00,00,00,00,
341157,00000545,false,Rx,0,8,00,4D,0B,00,7E,10,00,18,
349773,00000316,false,Rx,0,8,04,00,C0,12,00,00,00,00,
350017,00000329,false,Rx,0,8,86,7B,C5,00,00,00,00,00,
350266,000002A1,false,Rx,0,8,00,00,00,00,00,00,00,00,
350414,0000043B,false,Rx,0,3,46,00,00,00,00,00,00,00,
350651,00000545,false,Rx,0,8,00,4E,0B,00,7E,10,00,18,
359777,00000316,false,Rx,0,8,04,00,C0,12,00,00,00,00,
360011,00000329,false,Rx,0,8,86,7B,C5,00,00,00,00,00,
360261,000002A1,false,Rx,0,8,00,00,00,00,00,00,00,00,
360418,0000043B,false,Rx,0,3,46,00,00,00,00,00,00,00,
360655,00000545,false,Rx,0,8,00,4F,0B,00,7E,10,00,18,
364413,00000285,false,Rx,0,8,00,00,00,00,00,00,00,00,
364657,00000286,false,Rx,0,8,0F,6E,00,00,00,00,00,00,
364907,00000523,false,Rx,0,8,00,00,00,00,00,00,00,00,
369777,00000316,false,Rx,0,8,04,00,C0,12,00,00,00,00,
370011,00000329,false,Rx,0,8,86,7B,C5,00,00,00,00,00,
370261,000002A1,false,Rx,0,8,00,00,00,00,00,00,00,00,
370418,0000043B,false,Rx,0,3,46,00,00,00,00,00,00,00,
370656,00000545,false,Rx,0,8,00,50,0B,00,7E,10,00,18,
379782,00000316,false,Rx,0,8,04,00,C0,12,00,00,00,00,
380016,00000329,false,Rx,0,8,86,7B,C5,00,00,00,00,00,
380265,000002A1,false,Rx,0,8,00,00,00,00,00,00,00,00,
380412,0000043B,false,Rx,0,3,46,00,00,00,00,00,00,00,
380659,00000545,false,Rx,0,8,00,51,0B,00,7E,10,00,18,
389776,00000316,false,Rx,0,8,04,00,C0,12,00,00,00,00,
390021,00000329,false,Rx,0,8,D9,7B,C5,00,00,00,00,00,
390270,000002A1,false,Rx,0,8,00,00,00,00,00,00,00,00,
390417,0000043B,false,Rx,0,3,46,00,00,00,00,00,00,00,
390665,00000545,false,Rx,0,8,00,52,0B,00,7E,10,00,18,
399781,00000316,false,Rx,0,8,04,00,C0,12,00,00,00,00,
400016,00000329,false,Rx,0,8,D9,7B,C5,00,00,00,00,00,
400265,000002A1,false,Rx,0,8,00,00,00,00,00,00,00,00,
400422,0000043B,false,Rx,0,3,46,00,00,00,00,00,00,00,
400660,00000545,false,Rx,0,8,00,53,0B,00,7E,10,00,18,
409777,00000316,false,Rx,0,8,04,00,C0,12,00,00,00,00,
410021,00000329,false,Rx,0,8,D9,7B,C5,00,00,00,00,00,
410271,000002A1,false,Rx,0,8,00,00,00,00,00,00,00,00,
410428,0000043B,false,Rx,0,3,46,00,00,00,00,00,00,00,
410665,00000545,false,Rx,0,8,00,54,0B,00,7E,10,00,18,
419781,00000316,false,Rx,0,8,04,00,C0,12,00,00,00,00,
420025,00000329,false,Rx,0,8,D9,7B,C5,00,00,00,00,00,
420275,000002A1,false,Rx,0,8,00,00,00,00,00,00,00,00,
420422,0000043B,false,Rx,0,3,46,00,00,00,00,00,00,00,
420659,00000545,false,Rx,0,8,00,55,0B,00,7E,10,00,18,
429776,00000316,false,Rx,0,8,04,00,C0,12,00,00,00,00,
430020,00000329,false,Rx,0,8,D9,7B,C5,00,00,00,00,00,
430270,000002A1,false,Rx,0,8,00,00,00,00,00,00,00,00,
430428,0000043B,false,Rx,0,3,46,00,00,00,00,00,00,00,
430665,00000545,false,Rx,0,8,00,56,0B,00,7E,10,00,18,
439781,00000316,false,Rx,0,8,04,00,C0,12,00,00,00,00,
440025,00000329,false,Rx,0,8,D9,7B,C5,00,00,00,00,00,
440275,000002A1,false,Rx,0,8,00,00,00,00,00,00,00,00,
440422,0000043B,false,Rx,0,3,46,00,00,00,00,00,00,00,
440660,00000545,false,Rx,0,8,00,57,0B,00,7E,10,00,18,
449776,00000316,false,Rx,0,8,04,00,C0,12,00,00,00,00,
450020,00000329,false,Rx,0,8,D9,7B,C5,00,00,00,00,00,
450270,000002F0,false,Rx,0,8,00,00,00,00,00,00,00,00,
450530,00000200,false,Rx,0,8,00,00,00,00,00,00,00,00,
450778,000002A1,false,Rx,0,8,00,00,00,00,00,00,00,00,
450925,0000043B,false,Rx,0,3,46,00,00,00,00,00,00,00,
451162,00000545,false,Rx,0,8,00,58,0B,00,7E,10,00,18,
459778,00000316,false,Rx,0,8,04,00,C0,12,00,00,00,00,
460022,00000329,false,Rx,0,8,11,7B,C5,00,00,00,00,00,
460272,000002A1,false,Rx,0,8,00,00,00,00,00,00,00,00,
460419,0000043B,false,Rx,0,3,46,00,00,00,00,00,00,00,
460656,00000545,false,Rx,0,8,00,59,0B,00,7E,10,00,18,
464414,00000285,false,Rx,0,8,00,00,00,00,00,00,00,00,
464659,00000286,false,Rx,0,8,0F,6E,00,00,00,00,00,00,
464909,00000523,false,Rx,0,8,00,00,00,00,00,00,00,00,
469779,00000316,false,Rx,0,8,04,00,C0,12,00,00,00,00,
470024,00000329,false,Rx,0,8,11,7B,C5,00,00,00,00,00,
470274,000002A1,false,Rx,0,8,00,00,00,00,00,00,00,00,
470421,0000043B,false,Rx,0,3,46,00,00,00,00,00,00,00,
470668,00000545,false,Rx,0,8,00,5A,0B,00,7E,10,00,18,
479783,00000316,false,Rx,0,8,04,00,C0,12,00,00,00,00,
480017,00000329,false,Rx,0,8,11,7B,C5,00,00,00,00,00,
480277,000002A1,false,Rx,0,8,00,00,00,00,00,00,00,00,
480424,0000043B,false,Rx,0,3,46,00,00,00,00,00,00,00,
480661,00000545,false,Rx,0,8,00,5B,0B,00,7E,10,00,18,
489787,00000316,false,Rx,0,8,04,00,C0,12,00,00,00,00,
490021,00000329,false,Rx,0,8,11,7B,C5,00,00,00,00,00,
490270,000002A1,false,Rx,0,8,00,00,00,00,00,00,00,00,
490428,0000043B,false,Rx,0,3,46,00,00,00,00,00,00,00,
490665,00000545,false,Rx,0,8,00,5C,0B,00,7E,10,00,18,
499781,00000316,false,Rx,0,8,04,00,C0,12,00,00,00,00,
500025,00000329,false,Rx,0,8,11,7B,C5,00,00,00,00,00,
500275,000002A1,false,Rx,0,8,00,00,00,00,00,00,00,00,
500422,0000043B,false,Rx,0,3,46,00,00,00,00,00,00,00,
500660,00000545,false,Rx,0,8,00,5D,0B,00,7E,10,00,18,
509787,00000316,false,Rx,0,8,04,00,C0,12,00,00,00,00,
510023,00000329,false,Rx,0,8,11,7B,C5,00,00,00,00,00,
510271,000002A1,false,Rx,0,8,00,00,00,00,00,00,00,00,
510428,0000043B,false,Rx,0,3,46,00,00,00,00,00,00,00,
510666,00000545,false,Rx,0,8,00,5E,0B,00,7E,10,00,18,
519781,00000316,false,Rx,0,8,04,00,C0,12,00,00,00,00,
520027,00000329,false,Rx,0,8,11,7B,C5,00,00,00,00,00,
520275,000002A1,false,Rx,0,8,00,00,00,00,00,00,00,00,
520423,0000043B,false,Rx,0,3,46,00,00,00,00,00,00,00,
520670,00000545,false,Rx,0,8,00,5F,0B,00,7E,10,00,18,
529786,00000316,false,Rx,0,8,04,00,C0,12,00,00,00,00,
530021,00000329,false,Rx,0,8,11,7B,C5,00,00,00,00,00,
530280,000002A1,false,Rx,0,8,00,00,00,00,00,00,00,00,
530426,0000043B,false,Rx,0,3,46,00,00,00,00,00,00,00,
530664,00000545,false,Rx,0,8,00,60,0B,00,7E,10,00,18,
539779,00000316,false,Rx,0,8,04,00,C0,12,00,00,00,00,
540024,00000329,false,Rx,0,8,86,7B,C5,00,00,00,00,00,
540273,000002A1,false,Rx,0,8,00,00,00,00,00,00,00,00,
540420,0000043B,false,Rx,0,3,46,00,00,00,00,00,00,00,
540657,00000545,false,Rx,0,8,00,61,0B,00,7E,10,00,18,
549783,00000316,false,Rx,0,8,04,00,C0,12,00,00,00,00,
550019,00000329,false,Rx,0,8,86,7B,C5,00,00,00,00,00,
550277,000002A1,false,Rx,0,8,00,00,00,00,00,00,00,00,
550424,0000043B,false,Rx,0,3,46,00,00,00,00,00,00,00,
550662,00000545,false,Rx,0,8,00,62,0B,00,7E,10,00,18,
559788,00000316,false,Rx,0,8,04,00,C0,12,00,00,00,00,
560023,00000329,false,Rx,0,8,86,7B,C5,00,00,00,00,00,
560272,000002F0,false,Rx,0,8,00,00,00,00,00,00,00,00,
560531,00000200,false,Rx,0,8,00,00,00,00,00,00,00,00,
560781,000002A1,false,Rx,0,8,00,00,00,00,00,00,00,00,
560927,0000043B,false,Rx,0,3,46,00,00,00,00,00,00,00,
561174,00000545,false,Rx,0,8,00,63,0B,00,7E,10,00,18,
564421,00000285,false,Rx,0,8,00,00,00,00,00,00,00,00,
564667,00000286,false,Rx,0,8,0F,6E,00,00,00,00,00,00,
564915,00000523,false,Rx,0,8,00,00,00,00,00,00,00,00,
569786,00000316,false,Rx,0,8,04,00,C0,12,00,00,00,00,
570022,00000329,false,Rx,0,8,86,7B,C5,00,00,00,00,00,
570270,000002A1,false,Rx,0,8,00,00,00,00,00,00,00,00,
570428,0000043B,false,Rx,0,3,46,00,00,00,00,00,00,00,
570665,00000545,false,Rx,0,8,00,64,0B,00,7E,10,00,18,
579791,00000316,false,Rx,0,8,04,00,C0,12,00,00,00,00,
580026,00000329,false,Rx,0,8,86,7B,C5,00,00,00,00,00,
580275,000002A1,false,Rx,0,8,00,00,00,00,00,00,00,00,
580423,0000043B,false,Rx,0,3,46,00,00,00,00,00,00,00,
580660,00000545,false,Rx,0,8,00,65,0B,00,7E,10,00,18,
589786,00000316,false,Rx,0,8,04,00,C0,12,00,00,00,00,
590021,00000329,false,Rx,0,8,86,7B,C5,00,00,00,00,00,
590270,000002A1,false,Rx,0,8,00,00,00,00,00,00,00,00,
590427,0000043B,false,Rx,0,3,46,00,00,00,00,00,00,00,
590665,00000545,false,Rx,0,8,00,66,0B,00,7E,10,00,18,
599791,00000316,false,Rx,0,8,04,00,C0,12,00,00,00,00,
600026,00000329,false,Rx,0,8,86,7B,C5,00,00,00,00,00,
600274,000002A1,false,Rx,0,8,00,00,00,00,00,00,00,00,
600431,0000043B,false,Rx,0,3,46,00,00,00,00,00,00,00,
600659,00000545,false,Rx,0,8,00,67,0B,00,7E,10,00,18,
609785,00000316,false,Rx,0,8,04,00,C0,12,00,00,00,00,
610031,00000329,false,Rx,0,8,D9,7B,C5,00,00,00,00,00,
610279,000002A1,false,Rx,0,8,00,00,00,00,00,00,00,00,
610436,0000043B,false,Rx,0,3,46,00,00,00,00,00,00,00,
610675,00000545,false,Rx,0,8,00,68,0B,00,7E,10,00,18,
619788,00000316,false,Rx,0,8,04,00,C0,12,00,00,00,00,
620034,00000329,false,Rx,0,8,D9,7B,C5,00,00,00,00,00,
620282,000002A1,false,Rx,0,8,00,00,00,00,00,00,00,00,
620430,0000043B,false,Rx,0,3,46,00,00,00,00,00,00,00,
620668,00000545,false,Rx,0,8,00,69,0B,00,7E,10,00,18,
629793,00000316,false,Rx,0,8,04,00,C0,12,00,00,00,00,
630028,00000329,false,Rx,0,8,D9,7B,C5,00,00,00,00,00,
630276,000002A1,false,Rx,0,8,00,00,00,00,00,00,00,00,
630434,0000043B,false,Rx,0,3,46,00,00,00,00,00,00,00,
630672,00000545,false,Rx,0,8,00,6A,0B,00,7E,10,00,18,
639787,00000316,false,Rx,0,8,04,00,C0,12,00,00,00,00,
640032,00000329,false,Rx,0,8,D9,7B,C5,00,00,00,00,00,
640281,000002A1,false,Rx,0,8,00,00,00,00,00,00,00,00,
640438,0000043B,false,Rx,0,3,46,00,00,00,00,00,00,00,
640676,00000545,false,Rx,0,8,00,6B,0B,00,7E,10,00,18,
649792,00000316,false,Rx,0,8,04,00,C0,12,00,00,00,00,
650036,00000329,false,Rx,0,8,D9,7B,C5,00,00,00,00,00,
650285,000002A1,false,Rx,0,8,00,00,00,00,00,00,00,00,
650432,0000043B,false,Rx,0,3,46,00,00,00,00,00,00,00,
650670,00000545,false,Rx,0,8,00,6C,0B,00,7E,10,00,18,
659797,00000316,false,Rx,0,8,04,00,C0,12,00,00,00,00,
660031,00000329,false,Rx,0,8,D9,7B,C5,00,00,00,00,00,
660279,000002A1,false,Rx,0,8,00,00,00,00,00,00,00,00,
660437,0000043B,false,Rx,0,3,46,00,00,00,00,00,00,00,
660675,00000545,false,Rx,0,8,00,6D,0B,00,7E,10,00,18,
664423,00000285,false,Rx,0,8,00,00,00,00,00,00,00,00,
664677,00000286,false,Rx,0,8,0F,6E,00,00,00,00,00,00,
664926,00000523,false,Rx,0,8,00,00,00,00,00,00,00,00,
669787,00000316,false,Rx,0,8,04,00,C0,12,00,00,00,00,
670032,00000329,false,Rx,0,8,D9,7B,C5,00,00,00,00,00,
670280,000002F0,false,Rx,0,8,00,00,00,00,00,00,00,00,
670542,00000200,false,Rx,0,8,00,00,00,00,00,00,00,00,
670791,000002A1,false,Rx,0,8,00,00,00,00,00,00,00,00,
670936,0000043B,false,Rx,0,3,46,00,00,00,00,00,00,00,
671174,00000545,false,Rx,0,8,00,6E,0B,00,7E,10,00,18,
679790,00000316,false,Rx,0,8,04,00,C0,12,00,00,00,00,
680034,00000329,false,Rx,0,8,11,7B,C5,00,00,00,00,00,
680282,000002A1,false,Rx,0,8,00,00,00,00,00,00,00,00,
680429,0000043B,false,Rx,0,3,46,00,00,00,00,00,00,00,
680668,00000545,false,Rx,0,8,00,6F,0B,00,7E,10,00,18,
689793,00000316,false,Rx,0,8,04,00,C0,12,00,00,00,00,
690038,00000329,false,Rx,0,8,11,7B,C5,00,00,00,00,00,
690286,000002A1,false,Rx,0,8,00,00,00,00,00,00,00,00,
690433,0000043B,false,Rx,0,3,46,00,00,00,00,00,00,00,
690671,00000545,false,Rx,0,8,00,70,0B,00,7E,10,00,18,
699787,00000316,false,Rx,0,8,04,00,C0,12,00,00,00,00,
700031,00000329,false,Rx,0,8,11,7B,C5,00,00,00,00,00,
700280,000002A1,false,Rx,0,8,00,00,00,00,00,00,00,00,
700437,0000043B,false,Rx,0,3,46,00,00,00,00,00,00,00,
700676,00000545,false,Rx,0,8,00,71,0B,00,7E,10,00,18,
709792,00000316,false,Rx,0,8,04,00,C0,12,00,00,00,00,
710027,00000329,false,Rx,0,8,11,7B,C5,00,00,00,00,00,
710285,000002A1,false,Rx,0,8,00,00,00,00,00,00,00,00,
710432,0000043B,false,Rx,0,3,46,00,00,00,00,00,00,00,
710671,00000545,false,Rx,0,8,00,72,0B,00,7E,10,00,18,
719797,00000316,false,Rx,0,8,04,00,C0,12,00,00,00,00,
720031,00000329,false,Rx,0,8,11,7B,C5,00,00,00,00,00,
720279,000002A1,false,Rx,0,8,00,00,00,00,00,00,00,00,
720436,0000043B,false,Rx,0,3,46,00,00,00,00,00,00,00,
720675,00000545,false,Rx,0,8,00,73,0B,00,7E,10,00,18,
729792,00000316,false,Rx,0,8,04,00,C0,12,00,00,00,00,
730036,00000329,false,Rx,0,8,11,7B,C5,00,00,00,00,00,
730284,000002A1,false,Rx,0,8,00,00,00,00,00,00,00,00,
730433,0000043B,false,Rx,0,3,46,00,00,00,00,00,00,00,
730670,00000545,false,Rx,0,8,00,74,0B,00,7E,10,00,18,
739797,00000316,false,Rx,0,8,04,00,C0,12,00,00,00,00,
740031,00000329,false,Rx,0,8,11,7B,C5,00,00,00,00,00,
740280,000002A1,false,Rx,0,8,00,00,00,00,00,00,00,00,
740438,0000043B,false,Rx,0,3,46,00,00,00,00,00,00,00,
740675,00000545,false,Rx,0,8,00,75,0B,00,7E,10,00,18,
792226,00000316,false,Rx,0,8,04,00,C0,12,00,00,00,00,
792472,00000329,false,Rx,0,8,11,7B,C5,00,00,00,00,00,
792720,000002A1,false,Rx,0,8,00,00,00,00,00,00,00,00,
792868,0000043B,false,Rx,0,3,46,00,00,00,00,00,00,00,
793116,00000545,false,Rx,0,8,00,76,0B,00,7E,10,00,18,
802232,00000316,false,Rx,0,8,04,00,C0,12,00,00,00,00,
802466,00000329,false,Rx,0,8,86,7B,C5,00,00,00,00,00,
802715,000002A1,false,Rx,0,8,00,00,00,00,00,00,00,00,
802873,0000043B,false,Rx,0,3,46,00,00,00,00,00,00,00,
803110,00000545,false,Rx,0,8,00,77,0B,00,7E,10,00,18,
806868,00000285,false,Rx,0,8,00,00,00,00,00,00,00,00,
807113,00000286,false,Rx,0,8,0F,6E,00,00,00,00,00,00,
807361,00000523,false,Rx,0,8,00,00,00,00,00,00,00,00,
812233,00000316,false,Rx,0,8,04,00,C0,12,00,00,00,00,
812467,00000329,false,Rx,0,8,86,7B,C5,00,00,00,00,00,
812716,000002A1,false,Rx,0,8,00,00,00,00,00,00,00,00,
812874,0000043B,false,Rx,0,3,46,00,00,00,00,00,00,00,
813111,00000545,false,Rx,0,8,00,78,0B,00,7E,10,00,18,
822227,00000316,false,Rx,0,8,04,00,C0,12,00,00,00,00,
822471,00000329,false,Rx,0,8,86,7B,C5,00,00,00,00,00,
822720,000002F0,false,Rx,0,8,00,00,00,00,00,00,00,00,
822970,00000200,false,Rx,0,8,00,00,00,00,00,00,00,00,
823219,000002A1,false,Rx,0,8,00,00,00,00,00,00,00,00,
823375,0000043B,false,Rx,0,3,46,00,00,00,00,00,00,00,
823613,00000545,false,Rx,0,8,00,79,0B,00,7E,10,00,18,
832228,00000316,false,Rx,0,8,04,00,C0,12,00,00,00,00,
832473,00000329,false,Rx,0,8,86,7B,C5,00,00,00,00,00,
832721,000002A1,false,Rx,0,8,00,00,00,00,00,00,00,00,
832869,0000043B,false,Rx,0,3,46,00,00,00,00,00,00,00,
833107,00000545,false,Rx,0,8,00,7A,0B,00,7E,10,00,18,
842233,00000316,false,Rx,0,8,04,00,C0,12,00,00,00,00,
842467,00000329,false,Rx,0,8,86,7B,C5,00,00,00,00,00,
842715,000002A1,false,Rx,0,8,00,00,00,00,00,00,00,00,
842873,0000043B,false,Rx,0,3,46,00,00,00,00,00,00,00,
843111,00000545,false,Rx,0,8,00,7B,0B,00,7E,10,00,18,
852237,00000316,false,Rx,0,8,04,00,C0,12,00,00,00,00,
852471,00000329,false,Rx,0,8,86,7B,C5,00,00,00,00,00,
852719,000002A1,false,Rx,0,8,00,00,00,00,00,00,00,00,
852867,0000043B,false,Rx,0,3,46,00,00,00,00,00,00,00,
853115,00000545,false,Rx,0,8,00,7C,0B,00,7E,10,00,18,
862230,00000316,false,Rx,0,8,04,00,C0,12,00,00,00,00,
862475,00000329,false,Rx,0,8,86,7B,C5,00,00,00,00,00,
862725,000002A1,false,Rx,0,8,00,00,00,00,00,00,00,00,
862871,0000043B,false,Rx,0,3,46,00,00,00,00,00,00,00,
863108,00000545,false,Rx,0,8,00,7D,0B,00,7E,10,00,18,
872237,00000316,false,Rx,0,8,04,00,C0,12,00,00,00,00,
872471,00000329,false,Rx,0,8,D9,7B,C5,00,00,00,00,00,
872732,000002A1,false,Rx,0,8,00,00,00,00,00,00,00,00,
872878,0000043B,false,Rx,0,3,46,00,00,00,00,00,00,00,
873115,00000545,false,Rx,0,8,00,7E,0B,00,7E,10,00,18,
882232,00000316,false,Rx,0,8,04,00,C0,12,00,00,00,00,
882476,00000329,false,Rx,0,8,D9,7B,C5,00,00,00,00,00,
882727,000002A1,false,Rx,0,8,00,00,00,00,00,00,00,00,
882873,0000043B,false,Rx,0,3,46,00,00,00,00,00,00,00,
883120,00000545,false,Rx,0,8,00,7F,0B,00,7E,10,00,18,
892237,00000316,false,Rx,0,8,04,00,C0,12,00,00,00,00,
892481,00000329,false,Rx,0,8,D9,7B,C5,00,00,00,00,00,
892732,000002A1,false,Rx,0,8,00,00,00,00,00,00,00,00,
892877,0000043B,false,Rx,0,3,46,00,00,00,00,00,00,00,
893125,00000545,false,Rx,0,8,00,80,0B,00,7E,10,00,18,
902232,00000316,false,Rx,0,8,04,00,C0,12,00,00,00,00,
902476,00000329,false,Rx,0,8,D9,7B,C5,00,00,00,00,00,
902727,000002A1,false,Rx,0,8,00,00,00,00,00,00,00,00,
902883,0000043B,false,Rx,0,3,46,00,00,00,00,00,00,00,
903121,00000545,false,Rx,0,8,00,81,0B,00,7E,10,00,18,
906868,00000285,false,Rx,0,8,00,00,00,00,00,00,00,00,
907113,00000286,false,Rx,0,8,0F,6E,00,00,00,00,00,00,
907362,00000523,false,Rx,0,8,00,00,00,00,00,00,00,00,
912233,00000316,false,Rx,0,8,04,00,C0,12,00,00,00,00,
912477,00000329,false,Rx,0,8,D9,7B,C5,00,00,00,00,00,
912728,000002A1,false,Rx,0,8,00,00,00,00,00,00,00,00,
912884,0000043B,false,Rx,0,3,46,00,00,00,00,00,00,00,
913121,00000545,false,Rx,0,8,00,82,0B,00,7E,10,00,18,
922237,00000316,false,Rx,0,8,04,00,C0,12,00,00,00,00,
922481,00000329,false,Rx,0,8,D9,7B,C5,00,00,00,00,00,
922732,000002A1,false,Rx,0,8,00,00,00,00,00,00,00,00,
922877,0000043B,false,Rx,0,3,46,00,00,00,00,00,00,00,
923115,00000545,false,Rx,0,8,00,83,0B,00,7E,10,00,18,
932232,00000316,false,Rx,0,8,04,00,C0,12,00,00,00,00,
932476,00000329,false,Rx,0,8,D9,7B,C5,00,00,00,00,00,
932727,000002F0,false,Rx,0,8,00,00,00,00,00,00,00,00,
932985,00000200,false,Rx,0,8,00,00,00,00,00,00,00,00,
933234,000002A1,false,Rx,0,8,00,00,00,00,00,00,00,00,
933381,0000043B,false,Rx,0,3,46,00,00,00,00,00,00,00,
933618,00000545,false,Rx,0,8,00,84,0B,00,7E,10,00,18,
942233,00000316,false,Rx,0,8,04,00,C0,12,00,00,00,00,
942477,00000329,false,Rx,0,8,11,7B,C5,00,00,00,00,00,
942728,000002A1,false,Rx,0,8,00,00,00,00,00,00,00,00,
942874,0000043B,false,Rx,0,3,46,00,00,00,00,00,00,00,
943111,00000545,false,Rx,0,8,00,85,0B,00,7E,10,00,18,
952237,00000316,false,Rx,0,8,04,00,C0,12,00,00,00,00,
952481,00000329,false,Rx,0,8,11,7B,C5,00,00,00,00,00,
952732,000002A1,false,Rx,0,8,00,00,00,00,00,00,00,00,
952878,0000043B,false,Rx,0,3,46,00,00,00,00,00,00,00,
953115,00000545,false,Rx,0,8,00,86,0B,00,7E,10,00,18,
962242,00000316,false,Rx,0,8,04,00,C0,12,00,00,00,00,
962476,00000329,false,Rx,0,8,11,7B,C5,00,00,00,00,00,
962727,000002A1,false,Rx,0,8,00,00,00,00,00,00,00,00,
962883,0000043B,false,Rx,0,3,46,00,00,00,00,00,00,00,
963120,00000545,false,Rx,0,8,00,87,0B,00,7E,10,00,18,
972237,00000316,false,Rx,0,8,04,00,C0,12,00,00,00,00,
972481,00000329,false,Rx,0,8,11,7B,C5,00,00,00,00,00,
972732,000002A1,false,Rx,0,8,00,00,00,00,00,00,00,00,
972878,0000043B,false,Rx,0,3,46,00,00,00,00,00,00,00,
973115,00000545,false,Rx,0,8,00,88,0B,00,7E,10,00,18,
982242,00000316,false,Rx,0,8,04,00,C0,12,00,00,00,00,
982476,00000329,false,Rx,0,8,11,7B,C5,00,00,00,00,00,
982727,000002A1,false,Rx,0,8,00,00,00,00,00,00,00,00,
982882,0000043B,false,Rx,0,3,46,00,00,00,00,00,00,00,
983120,00000545,false,Rx,0,8,00,89,0B,00,7E,10,00,18,
992237,00000316,false,Rx,0,8,04,00,C0,12,00,00,00,00,
992481,00000329,false,Rx,0,8,11,7B,C5,00,00,00,00,00,
992732,000002A1,false,Rx,0,8,00,00,00,00,00,00,00,00,
992878,0000043B,false,Rx,0,3,46,00,00,00,00,00,00,00,
993115,00000545,false,Rx,0,8,00,8A,0B,00,7E,10,00,18,
1002242,00000316,false,Rx,0,8,04,00,C0,12,00,00,00,00,
1002476,00000329,false,Rx,0,8,11,7B,C5,00,00,00,00,00,
1002727,000002A1,false,Rx,0,8,00,00,00,00,00,00,00,00,
1002883,0000043B,false,Rx,0,3,46,00,00,00,00,00,00,00,
1003120,00000545,false,Rx,0,8,00,8B,0B,00,7E,10,00,18,
1006878,00000285,false,Rx,0,8,00,00,00,00,00,00,00,00,
1007124,00000286,false,Rx,0,8,0F,6E,00,00,00,00,00,00,
1007372,00000523,false,Rx,0,8,00,00,00,00,00,00,00,00,
1012243,00000316,false,Rx,0,8,04,00,C0,12,00,00,00,00,
1012477,00000329,false,Rx,0,8,11,7B,C5,00,00,00,00,00,
1012728,000002A1,false,Rx,0,8,00,00,00,00,00,00,00,00,
1012884,0000043B,false,Rx,0,3,46,00,00,00,00,00,00,00,
1013121,00000545,false,Rx,0,8,00,8C,0B,00,7E,10,00,18,
1022237,00000316,false,Rx,0,8,04,00,C0,12,00,00,00,00,
1022482,00000329,false,Rx,0,8,86,7B,C5,00,00,00,00,00,
1022732,000002A1,false,Rx,0,8,00,00,00,00,00,00,00,00,
1022877,0000043B,false,Rx,0,3,46,00,00,00,00,00,00,00,
1023115,00000545,false,Rx,0,8,00,8D,0B,00,7E,10,00,18,
1032242,00000316,false,Rx,0,8,04,00,C0,12,00,00,00,00,
1032477,00000329,false,Rx,0,8,86,7B,C5,00,00,00,00,00,
1032727,000002A1,false,Rx,0,8,00,00,00,00,00,00,00,00,
1032883,0000043B,false,Rx,0,3,46,00,00,00,00,00,00,00,
1033120,00000545,false,Rx,0,8,00,8E,0B,00,7E,10,00,18,
1042237,00000316,false,Rx,0,8,04,00,C0,12,00,00,00,00,
1042482,00000329,false,Rx,0,8,86,7B,C5,00,00,00,00,00,
1042732,000002F0,false,Rx,0,8,00,00,00,00,00,00,00,00,
1042980,00000200,false,Rx,0,8,00,00,00,00,00,00,00,00,
1043230,000002A1,false,Rx,0,8,00,00,00,00,00,00,00,00,
1043407,0000043B,false,Rx,0,3,46,00,00,00,00,00,00,00,
1043624,00000545,false,Rx,0,8,00,8F,0B,00,7E,10,00,18,
1052239,00000316,false,Rx,0,8,04,00,C0,12,00,00,00,00,
1052475,00000329,false,Rx,0,8,86,7B,C5,00,00,00,00,00,
1052735,000002A1,false,Rx,0,8,00,00,00,00,00,00,00,00,
1052881,0000043B,false,Rx,0,3,46,00,00,00,00,00,00,00,
1053118,00000545,false,Rx,0,8,00,90,0B,00,7E,10,00,18,
1062244,00000316,false,Rx,0,8,04,00,C0,12,00,00,00,00,
1062479,00000329,false,Rx,0,8,86,7B,C5,00,00,00,00,00,
1062728,000002A1,false,Rx,0,8,00,00,00,00,00,00,00,00,
1062884,0000043B,false,Rx,0,3,46,00,00,00,00,00,00,00,
1063121,00000545,false,Rx,0,8,00,91,0B,00,7E,10,00,18,
1072238,00000316,false,Rx,0,8,04,00,C0,12,00,00,00,00,
1072483,00000329,false,Rx,0,8,86,7B,C5,00,00,00,00,00,
1072733,000002A1,false,Rx,0,8,00,00,00,00,00,00,00,00,
1072879,0000043B,false,Rx,0,3,46,00,00,00,00,00,00,00,
1073126,00000545,false,Rx,0,8,00,92,0B,00,7E,10,00,18,
1082243,00000316,false,Rx,0,8,04,00,C0,12,00,00,00,00,
1082478,00000329,false,Rx,0,8,86,7B,C5,00,00,00,00,00,
1082728,000002A1,false,Rx,0,8,00,00,00,00,00,00,00,00,
1082884,0000043B,false,Rx,0,3,46,00,00,00,00,00,00,00,
1083121,00000545,false,Rx,0,8,00,93,0B,00,7E,10,00,18,
1092247,00000316,false,Rx,0,8,04,00,C0,12,00,00,00,00,
1092482,00000329,false,Rx,0,8,D9,7B,C5,00,00,00,00,00,
1092732,000002A1,false,Rx,0,8,00,00,00,00,00,00,00,00,
1092888,0000043B,false,Rx,0,3,46,00,00,00,00,00,00,00,
1093126,00000545,false,Rx,0,8,00,94,0B,00,7E,10,00,18,
1102242,00000316,false,Rx,0,8,04,00,C0,12,00,00,00,00,
1102487,00000329,false,Rx,0,8,D9,7B,C5,00,00,00,00,00,
1102737,000002A1,false,Rx,0,8,00,00,00,00,00,00,00,00,
1102883,0000043B,false,Rx,0,3,46,00,00,00,00,00,00,00,
1103121,00000545,false,Rx,0,8,00,95,0B,00,7E,10,00,18,
1106878,00000285,false,Rx,0,8,00,00,00,00,00,00,00,00,
1107124,00000286,false,Rx,0,8,0F,6E,00,00,00,00,00,00,
1107373,00000523,false,Rx,0,8,00,00,00,00,00,00,00,00,
1112243,00000316,false,Rx,0,8,04,00,C0,12,00,00,00,00,
1112489,00000329,false,Rx,0,8,D9,7B,C5,00,00,00,00,00,
1112738,000002A1,false,Rx,0,8,00,00,00,00,00,00,00,00,
1112884,0000043B,false,Rx,0,3,46,00,00,00,00,00,00,00,
1113122,00000545,false,Rx,0,8,00,96,0B,00,7E,10,00,18,
1122247,00000316,false,Rx,0,8,04,00,C0,12,00,00,00,00,
1122482,00000329,false,Rx,0,8,D9,7B,C5,00,00,00,00,00,
1122742,000002A1,false,Rx,0,8,00,00,00,00,00,00,00,00,
1122888,0000043B,false,Rx,0,3,46,00,00,00,00,00,00,00,
1123126,00000545,false,Rx,0,8,00,97,0B,00,7E,10,00,18,
1132241,00000316,false,Rx,0,8,04,00,C0,12,00,00,00,00,
1132487,00000329,false,Rx,0,8,D9,7B,C5,00,00,00,00,00,
1132737,000002A1,false,Rx,0,8,00,00,00,00,00,00,00,00,
1132893,0000043B,false,Rx,0,3,46,00,00,00,00,00,00,00,
1133131,00000545,false,Rx,0,8,00,98,0B,00,7E,10,00,18,
1142246,00000316,false,Rx,0,8,04,00,C0,12,00,00,00,00,
1142492,00000329,false,Rx,0,8,D9,7B,C5,00,00,00,00,00,
1142742,000002A1,false,Rx,0,8,00,00,00,00,00,00,00,00,
1142887,0000043B,false,Rx,0,3,46,00,00,00,00,00,00,00,
1143125,00000545,false,Rx,0,8,00,99,0B,00,7E,10,00,18,
1152250,00000316,false,Rx,0,8,04,00,C0,12,00,00,00,00,
1152485,00000329,false,Rx,0,8,D9,7B,C5,00,00,00,00,00,
1152745,000002F0,false,Rx,0,8,00,00,00,00,00,00,00,00,
1152993,00000200,false,Rx,0,8,00,00,00,00,00,00,00,00,
1153243,000002A1,false,Rx,0,8,00,00,00,00,00,00,00,00,
1153399,0000043B,false,Rx,0,3,46,00,00,00,00,00,00,00,
1153636,00000545,false,Rx,0,8,00,9A,0B,00,7E,10,00,18,
1162253,00000316,false,Rx,0,8,04,00,C0,12,00,00,00,00,
1162487,00000329,false,Rx,0,8,11,7B,C5,00,00,00,00,00,
1162737,000002A1,false,Rx,0,8,00,00,00,00,00,00,00,00,
1162892,0000043B,false,Rx,0,3,46,00,00,00,00,00,00,00,
1163120,00000545,false,Rx,0,8,00,9B,0B,00,7E,10,00,18,
1172247,00000316,false,Rx,0,8,04,00,C0,12,00,00,00,00,
1172491,00000329,false,Rx,0,8,11,7B,C5,00,00,00,00,00,
1172741,000002A1,false,Rx,0,8,00,00,00,00,00,00,00,00,
1172886,0000043B,false,Rx,0,3,46,00,00,00,00,00,00,00,
1173125,00000545,false,Rx,0,8,00,9C,0B,00,7E,10,00,18,
1182250,00000316,false,Rx,0,8,04,00,C0,12,00,00,00,00,
1182484,00000329,false,Rx,0,8,11,7B,C5,00,00,00,00,00,
1182744,000002A1,false,Rx,0,8,00,00,00,00,00,00,00,00,
1182890,0000043B,false,Rx,0,3,46,00,00,00,00,00,00,00,
1183128,00000545,false,Rx,0,8,00,9D,0B,00,7E,10,00,18,
1192244,00000316,false,Rx,0,8,04,00,C0,12,00,00,00,00,
1192489,00000329,false,Rx,0,8,11,7B,C5,00,00,00,00,00,
1192738,000002A1,false,Rx,0,8,00,00,00,00,00,00,00,00,
1192894,0000043B,false,Rx,0,3,46,00,00,00,00,00,00,00,
1193133,00000545,false,Rx,0,8,00,9E,0B,00,7E,10,00,18,
1202248,00000316,false,Rx,0,8,04,00,C0,12,00,00,00,00,
1202493,00000329,false,Rx,0,8,11,7B,C5,00,00,00,00,00,
1202743,000002A1,false,Rx,0,8,00,00,00,00,00,00,00,00,
1202889,0000043B,false,Rx,0,3,46,00,00,00,00,00,00,00,
1203127,00000545,false,Rx,0,8,00,9F,0B,00,7E,10,00,18,
1206887,00000285,false,Rx,0,8,00,00,00,00,00,00,00,00,
1207131,00000286,false,Rx,0,8,0F,6E,00,00,00,00,00,00,
1207380,00000523,false,Rx,0,8,00,00,00,00,00,00,00,00,
1212243,00000316,false,Rx,0,8,04,00,C0,12,00,00,00,00,
1212487,00000329,false,Rx,0,8,11,7B,C5,00,00,00,00,00,
1212737,000002A1,false,Rx,0,8,00,00,00,00,00,00,00,00,
1212893,0000043B,false,Rx,0,3,46,00,00,00,00,00,00,00,
1213131,00000545,false,Rx,0,8,00,A0,0B,00,7E,10,00,18,
1222248,00000316,false,Rx,0,8,04,00,C0,12,00,00,00,00,
1222492,00000329,false,Rx,0,8,11,7B,C5,00,00,00,00,00,
1222742,000002A1,false,Rx,0,8,00,00,00,00,00,00,00,00,
1222887,0000043B,false,Rx,0,3,46,00,00,00,00,00,00,00,
1223126,00000545,false,Rx,0,8,00,A1,0B,00,7E,10,00,18,
1232253,00000316,false,Rx,0,8,04,00,C0,12,00,00,00,00,
1232487,00000329,false,Rx,0,8,11,7B,C5,00,00,00,00,00,
1232737,000002A1,false,Rx,0,8,00,00,00,00,00,00,00,00,
1232893,0000043B,false,Rx,0,3,46,00,00,00,00,00,00,00,
1233131,00000545,false,Rx,0,8,00,A2,0B,00,7E,10,00,18,
1242248,00000316,false,Rx,0,8,04,00,C0,12,00,00,00,00,
1242492,00000329,false,Rx,0,8,86,7B,C5,00,00,00,00,00,
1242742,000002A1,false,Rx,0,8,00,00,00,00,00,00,00,00,
1242889,0000043B,false,Rx,0,3,46,00,00,00,00,00,00,00,
1243126,00000545,false,Rx,0,8,00,A3,0B,00,7E,10,00,18,
1252253,00000316,false,Rx,0,8,04,00,C0,12,00,00,00,00,
1252487,00000329,false,Rx,0,8,86,7B,C5,00,00,00,00,00,
1252736,000002A1,false,Rx,0,8,00,00,00,00,00,00,00,00,
1252893,0000043B,false,Rx,0,3,46,00,00,00,00,00,00,00,
1253131,00000545,false,Rx,0,8,00,A4,0B,00,7E,10,00,18,
1262248,00000316,false,Rx,0,8,04,00,C0,12,00,00,00,00,
1262492,00000329,false,Rx,0,8,86,7B,C5,00,00,00,00,00,
1262742,000002F0,false,Rx,0,8,00,00,00,00,00,00,00,00,
1262991,00000200,false,Rx,0,8,00,00,00,00,00,00,00,00,
1263240,000002A1,false,Rx,0,8,00,00,00,00,00,00,00,00,
1263396,0000043B,false,Rx,0,3,46,00,00,00,00,00,00,00,
1263634,00000545,false,Rx,0,8,00,A5,0B,00,7E,10,00,18,
1272249,00000316,false,Rx,0,8,04,00,C0,12,00,00,00,00,
1272493,00000329,false,Rx,0,8,86,7B,C5,00,00,00,00,00,
1272743,000002A1,false,Rx,0,8,00,00,00,00,00,00,00,00,
1272890,0000043B,false,Rx,0,3,46,00,00,00,00,00,00,00,
1273127,00000545,false,Rx,0,8,00,A6,0B,00,7E,10,00,18,
1282253,00000316,false,Rx,0,8,04,00,C0,12,00,00,00,00,
1282487,00000329,false,Rx,0,8,86,7B,C5,00,00,00,00,00,
1282736,000002A1,false,Rx,0,8,00,00,00,00,00,00,00,00,
1282894,0000043B,false,Rx,0,3,46,00,00,00,00,00,00,00,
1283131,00000545,false,Rx,0,8,00,A7,0B,00,7E,10,00,18,
1292248,00000316,false,Rx,0,8,04,00,C0,12,00,00,00,00,
1292493,00000329,false,Rx,0,8,86,7B,C5,00,00,00,00,00,
1292742,000002A1,false,Rx,0,8,00,00,00,00,00,00,00,00,
1292889,0000043B,false,Rx,0,3,46,00,00,00,00,00,00,00,
1293126,00000545,false,Rx,0,8,00,A8,0B,00,7E,10,00,18,
1302253,00000316,false,Rx,0,8,04,00,C0,12,00,00,00,00,
1302487,00000329,false,Rx,0,8,86,7B,C5,00,00,00,00,00,
1302747,000002A1,false,Rx,0,8,00,00,00,00,00,00,00,00,
1302893,0000043B,false,Rx,0,3,46,00,00,00,00,00,00,00,
1303131,00000545,false,Rx,0,8,00,A9,0B,00,7E,10,00,18,
1306889,00000285,false,Rx,0,8,00,00,00,00,00,00,00,00,
1307133,00000286,false,Rx,0,8,0F,6E,00,00,00,00,00,00,
1307382,00000523,false,Rx,0,8,00,00,00,00,00,00,00,00,
1312253,00000316,false,Rx,0,8,04,00,C0,12,00,00,00,00,
1312498,00000329,false,Rx,0,8,D9,7B,C5,00,00,00,00,00,
1312747,000002A1,false,Rx,0,8,00,00,00,00,00,00,00,00,
1312894,0000043B,false,Rx,0,3,46,00,00,00,00,00,00,00,
1313142,00000545,false,Rx,0,8,00,AA,0B,00,7E,10,00,18,
1322257,00000316,false,Rx,0,8,04,00,C0,12,00,00,00,00,
1322491,00000329,false,Rx,0,8,D9,7B,C5,00,00,00,00,00,
1322753,000002A1,false,Rx,0,8,00,00,00,00,00,00,00,00,
1322898,0000043B,false,Rx,0,3,46,00,00,00,00,00,00,00,
1323135,00000545,false,Rx,0,8,00,AB,0B,00,7E,10,00,18,
1332253,00000316,false,Rx,0,8,04,00,C0,12,00,00,00,00,
1332497,00000329,false,Rx,0,8,D9,7B,C5,00,00,00,00,00,
1332748,000002A1,false,Rx,0,8,00,00,00,00,00,00,00,00,
1332904,0000043B,false,Rx,0,3,46,00,00,00,00,00,00,00,
1333141,00000545,false,Rx,0,8,00,AC,0B,00,7E,10,00,18,
1342258,00000316,false,Rx,0,8,04,00,C0,12,00,00,00,00,
1342502,00000329,false,Rx,0,8,D9,7B,C5,00,00,00,00,00,
1342753,000002A1,false,Rx,0,8,00,00,00,00,00,00,00,00,
1342898,0000043B,false,Rx,0,3,46,00,00,00,00,00,00,00,
1343135,00000545,false,Rx,0,8,00,AD,0B,00,7E,10,00,18,
1352252,00000316,false,Rx,0,8,04,00,C0,12,00,00,00,00,
1352496,00000329,false,Rx,0,8,D9,7B,C5,00,00,00,00,00,
1352747,000002A1,false,Rx,0,8,00,00,00,00,00,00,00,00,
1352903,0000043B,false,Rx,0,3,46,00,00,00,00,00,00,00,
1353140,00000545,false,Rx,0,8,00,AE,0B,00,7E,10,00,18,
1362256,00000316,false,Rx,0,8,04,00,C0,12,00,00,00,00,
1362500,00000329,false,Rx,0,8,D9,7B,C5,00,00,00,00,00,
1362751,000002A1,false,Rx,0,8,00,00,00,00,00,00,00,00,
1362897,0000043B,false,Rx,0,3,46,00,00,00,00,00,00,00,
1363134,00000545,false,Rx,0,8,00,AF,0B,00,7E,10,00,18,
1372259,00000316,false,Rx,0,8,04,00,C0,12,00,00,00,00,
1372493,00000329,false,Rx,0,8,D9,7B,C5,00,00,00,00,00,
1372754,000002F0,false,Rx,0,8,00,00,00,00,00,00,00,00,
1373003,00000200,false,Rx,0,8,00,00,00,00,00,00,00,00,
1373251,000002A1,false,Rx,0,8,00,00,00,00,00,00,00,00,
1373407,0000043B,false,Rx,0,3,46,00,00,00,00,00,00,00,
1373646,00000545,false,Rx,0,8,00,B0,0B,00,7E,10,00,18,
1382261,00000316,false,Rx,0,8,04,00,C0,12,00,00,00,00,
1382495,00000329,false,Rx,0,8,11,7B,C5,00,00,00,00,00,
1382745,000002A1,false,Rx,0,8,00,00,00,00,00,00,00,00,
1382901,0000043B,false,Rx,0,3,46,00,00,00,00,00,00,00,
1383139,00000545,false,Rx,0,8,00,B1,0B,00,7E,10,00,18,
1392254,00000316,false,Rx,0,8,04,00,C0,12,00,00,00,00,
1392498,00000329,false,Rx,0,8,11,7B,C5,00,00,00,00,00,
1392750,000002A1,false,Rx,0,8,00,00,00,00,00,00,00,00,
1392896,0000043B,false,Rx,0,3,46,00,00,00,00,00,00,00,
1393133,00000545,false,Rx,0,8,00,B2,0B,00,7E,10,00,18,
1402259,00000316,false,Rx,0,8,04,00,C0,12,00,00,00,00,
1402493,00000329,false,Rx,0,8,11,7B,C5,00,00,00,00,00,
1402745,000002A1,false,Rx,0,8,00,00,00,00,00,00,00,00,
1402901,0000043B,false,Rx,0,3,46,00,00,00,00,00,00,00,
1403138,00000545,false,Rx,0,8,00,B3,0B,00,7E,10,00,18,
1406896,00000285,false,Rx,0,8,00,00,00,00,00,00,00,00,
1407141,00000286,false,Rx,0,8,0F,6E,00,00,00,00,00,00,
1407390,00000523,false,Rx,0,8,00,00,00,00,00,00,00,00,
1412261,00000316,false,Rx,0,8,04,00,C0,12,00,00,00,00,
1412495,00000329,false,Rx,0,8,11,7B,C5,00,00,00,00,00,
1412746,000002A1,false,Rx,0,8,00,00,00,00,00,00,00,00,
1412902,0000043B,false,Rx,0,3,46,00,00,00,00,00,00,00,
1413139,00000545,false,Rx,0,8,00,B4,0B,00,7E,10,00,18,
1422254,00000316,false,Rx,0,8,04,00,C0,12,00,00,00,00,
1422499,00000329,false,Rx,0,8,11,7B,C5,00,00,00,00,00,
1422750,000002A1,false,Rx,0,8,00,00,00,00,00,00,00,00,
1422895,0000043B,false,Rx,0,3,46,00,00,00,00,00,00,00,
1423133,00000545,false,Rx,0,8,00,B5,0B,00,7E,10,00,18,
1432259,00000316,false,Rx,0,8,04,00,C0,12,00,00,00,00,
1432503,00000329,false,Rx,0,8,11,7B,C5,00,00,00,00,00,
1432744,000002A1,false,Rx,0,8,00,00,00,00,00,00,00,00,
1432900,0000043B,false,Rx,0,3,46,00,00,00,00,00,00,00,
1433137,00000545,false,Rx,0,8,00,B6,0B,00,7E,10,00,18,
1442264,00000316,false,Rx,0,8,04,00,C0,12,00,00,00,00,
1442499,00000329,false,Rx,0,8,11,7B,C5,00,00,00,00,00,
1442750,000002A1,false,Rx,0,8,00,00,00,00,00,00,00,00,
1442906,0000043B,false,Rx,0,3,46,00,00,00,00,00,00,00,
1443143,00000545,false,Rx,0,8,00,B7,0B,00,7E,10,00,18,
1452259,00000316,false,Rx,0,8,04,00,C0,12,00,00,00,00,
1452503,00000329,false,Rx,0,8,11,7B,C5,00,00,00,00,00,
1452755,000002A1,false,Rx,0,8,00,00,00,00,00,00,00,00,
1452900,0000043B,false,Rx,0,3,46,00,00,00,00,00,00,00,
1453138,00000545,false,Rx,0,8,00,B8,0B,00,7E,10,00,18,
1462264,00000316,false,Rx,0,8,04,00,C0,12,00,00,00,00,
1462498,00000329,false,Rx,0,8,86,7B,C5,00,00,00,00,00,
1462750,000002A1,false,Rx,0,8,00,00,00,00,00,00,00,00,
1462896,0000043B,false,Rx,0,3,46,00,00,00,00,00,00,00,
1463143,00000545,false,Rx,0,8,00,B9,0B,00,7E,10,00,18,
1472258,00000316,false,Rx,0,8,04,00,C0,12,00,00,00,00,
1472503,00000329,false,Rx,0,8,86,7B,C5,00,00,00,00,00,
1472753,000002A1,false,Rx,0,8,00,00,00,00,00,00,00,00,
1472899,0000043B,false,Rx,0,3,46,00,00,00,00,00,00,00,
1473136,00000545,false,Rx,0,8,00,BA,0B,00,7E,10,00,18,
1482262,00000316,false,Rx,0,8,04,00,C0,12,00,00,00,00,
1482497,00000329,false,Rx,0,8,86,7B,C5,00,00,00,00,00,
1482747,000002F0,false,Rx,0,8,00,00,00,00,00,00,00,00,
1483006,00000200,false,Rx,0,8,00,00,00,00,00,00,00,00,
1483254,000002A1,false,Rx,0,8,00,00,00,00,00,00,00,00,
1483401,0000043B,false,Rx,0,3,46,00,00,00,00,00,00,00,
1483638,00000545,false,Rx,0,8,00,BB,0B,00,7E,10,00,18,
1492264,00000316,false,Rx,0,8,04,00,C0,12,00,00,00,00,
1492499,00000329,false,Rx,0,8,86,7B,C5,00,00,00,00,00,
1492749,000002A1,false,Rx,0,8,00,00,00,00,00,00,00,00,
1492905,0000043B,false,Rx,0,3,46,00,00,00,00,00,00,00,
1493142,00000545,false,Rx,0,8,00,BC,0B,00,7E,10,00,18,
1502258,00000316,false,Rx,0,8,04,00,C0,12,00,00,00,00,
1502504,00000329,false,Rx,0,8,86,7B,C5,00,00,00,00,00,
1502753,000002A1,false,Rx,0,8,00,00,00,00,00,00,00,00,
1502899,0000043B,false,Rx,0,3,46,00,00,00,00,00,00,00,
1503136,00000545,false,Rx,0,8,00,BD,0B,00,7E,10,00,18,
1506905,00000285,false,Rx,0,8,00,00,00,00,00,00,00,00,
1507151,00000286,false,Rx,0,8,0F,6E,00,00,00,00,00,00,
1507399,00000523,false,Rx,0,8,00,00,00,00,00,00,00,00,
1512261,00000316,false,Rx,0,8,04,00,C0,12,00,00,00,00,
1512496,00000329,false,Rx,0,8,86,7B,C5,00,00,00,00,00,
1512756,000002A1,false,Rx,0,8,00,00,00,00,00,00,00,00,
1512902,0000043B,false,Rx,0,3,46,00,00,00,00,00,00,00,
1513149,00000545,false,Rx,0,8,00,BE,0B,00,7E,10,00,18,
1522265,00000316,false,Rx,0,8,04,00,C0,12,00,00,00,00,
1522500,00000329,false,Rx,0,8,86,7B,C5,00,00,00,00,00,
1522750,000002A1,false,Rx,0,8,00,00,00,00,00,00,00,00,
1522906,0000043B,false,Rx,0,3,46,00,00,00,00,00,00,00,
1523143,00000545,false,Rx,0,8,00,BF,0B,00,7E,10,00,18,
1532259,00000316,false,Rx,0,8,04,00,C0,12,00,00,00,00,
1532505,00000329,false,Rx,0,8,D9,7B,C5,00,00,00,00,00,
1532754,000002A1,false,Rx,0,8,00,00,00,00,00,00,00,00,
1532911,0000043B,false,Rx,0,3,46,00,00,00,00,00,00,00,
1533148,00000545,false,Rx,0,8,00,C0,0B,00,7E,10,00,18,
1542265,00000316,false,Rx,0,8,04,00,C0,12,00,00,00,00,
1542510,00000329,false,Rx,0,8,D9,7B,C5,00,00,00,00,00,
1542760,000002A1,false,Rx,0,8,00,00,00,00,00,00,00,00,
1542906,0000043B,false,Rx,0,3,46,00,00,00,00,00,00,00,
1543153,00000545,false,Rx,0,8,00,C1,0B,00,7E,10,00,18,
1552268,00000316,false,Rx,0,8,04,00,C0,12,00,00,00,00,
1552504,00000329,false,Rx,0,8,D9,7B,C5,00,00,00,00,00,
1552754,000002A1,false,Rx,0,8,00,00,00,00,00,00,00,00,
1552909,0000043B,false,Rx,0,3,46,00,00,00,00,00,00,00,
1553147,00000545,false,Rx,0,8,00,C2,0B,00,7E,10,00,18,
1562264,00000316,false,Rx,0,8,04,00,C0,12,00,00,00,00,
1562509,00000329,false,Rx,0,8,D9,7B,C5,00,00,00,00,00,
1562759,000002A1,false,Rx,0,8,00,00,00,00,00,00,00,00,
1562905,0000043B,false,Rx,0,3,46,00,00,00,00,00,00,00,
1563153,00000545,false,Rx,0,8,00,C3,0B,00,7E,10,00,18,
1572268,00000316,false,Rx,0,8,04,00,C0,12,00,00,00,00,
1572513,00000329,false,Rx,0,8,D9,7B,C5,00,00,00,00,00,
1572763,000002A1,false,Rx,0,8,00,00,00,00,00,00,00,00,
1572908,0000043B,false,Rx,0,3,46,00,00,00,00,00,00,00,
1573147,00000545,false,Rx,0,8,00,C4,0B,00,7E,10,00,18,
1582271,00000316,false,Rx,0,8,04,00,C0,12,00,00,00,00,
1582506,00000329,false,Rx,0,8,D9,7B,C5,00,00,00,00,00,
1582756,000002A1,false,Rx,0,8,00,00,00,00,00,00,00,00,
1582912,0000043B,false,Rx,0,3,46,00,00,00,00,00,00,00,
1583151,00000545,false,Rx,0,8,00,C5,0B,00,7E,10,00,18,
1592265,00000316,false,Rx,0,8,04,00,C0,12,00,00,00,00,
1592511,00000329,false,Rx,0,8,D9,7B,C5,00,00,00,00,00,
1592760,000002F0,false,Rx,0,8,00,00,00,00,00,00,00,00,
1593009,00000200,false,Rx,0,8,00,00,00,00,00,00,00,00,
1593258,000002A1,false,Rx,0,8,00,00,00,00,00,00,00,00,
1593414,0000043B,false,Rx,0,3,46,00,00,00,00,00,00,00,
1593652,00000545,false,Rx,0,8,00,C6,0B,00,7E,10,00,18,
1602267,00000316,false,Rx,0,8,04,00,C0,12,00,00,00,00,
1602513,00000329,false,Rx,0,8,11,7B,C5,00,00,00,00,00,
1602762,000002A1,false,Rx,0,8,00,00,00,00,00,00,00,00,
1602908,0000043B,false,Rx,0,3,46,00,00,00,00,00,00,00,
1603146,00000545,false,Rx,0,8,00,C7,0B,00,7E,10,00,18,
1606903,00000285,false,Rx,0,8,00,00,00,00,00,00,00,00,
1607149,00000286,false,Rx,0,8,0F,6E,00,00,00,00,00,00,
1607397,00000523,false,Rx,0,8,00,00,00,00,00,00,00,00,
1612268,00000316,false,Rx,0,8,04,00,C0,12,00,00,00,00,
1612513,00000329,false,Rx,0,8,11,7B,C5,00,00,00,00,00,
1612763,000002A1,false,Rx,0,8,00,00,00,00,00,00,00,00,
1612909,0000043B,false,Rx,0,3,46,00,00,00,00,00,00,00,
1613147,00000545,false,Rx,0,8,00,C8,0B,00,7E,10,00,18,
1622274,00000316,false,Rx,0,8,04,00,C0,12,00,00,00,00,
1622508,00000329,false,Rx,0,8,11,7B,C5,00,00,00,00,00,
1622758,000002A1,false,Rx,0,8,00,00,00,00,00,00,00,00,
1622914,0000043B,false,Rx,0,3,46,00,00,00,00,00,00,00,
1623152,00000545,false,Rx,0,8,00,C9,0B,00,7E,10,00,18,
1632268,00000316,false,Rx,0,8,04,00,C0,12,00,00,00,00,
1632512,00000329,false,Rx,0,8,11,7B,C5,00,00,00,00,00,
1632762,000002A1,false,Rx,0,8,00,00,00,00,00,00,00,00,
1632908,0000043B,false,Rx,0,3,46,00,00,00,00,00,00,00,
1633146,00000545,false,Rx,0,8,00,CA,0B,00,7E,10,00,18,
1642273,00000316,false,Rx,0,8,04,00,C0,12,00,00,00,00,
1642507,00000329,false,Rx,0,8,11,7B,C5,00,00,00,00,00,
1642757,000002A1,false,Rx,0,8,00,00,00,00,00,00,00,00,
1642913,0000043B,false,Rx,0,3,46,00,00,00,00,00,00,00,
1643152,00000545,false,Rx,0,8,00,CB,0B,00,7E,10,00,18,
1652268,00000316,false,Rx,0,8,04,00,C0,12,00,00,00,00,
1652513,00000329,false,Rx,0,8,11,7B,C5,00,00,00,00,00,
1652762,000002A1,false,Rx,0,8,00,00,00,00,00,00,00,00,
1652908,0000043B,false,Rx,0,3,46,00,00,00,00,00,00,00,
1653147,00000545,false,Rx,0,8,00,CC,0B,00,7E,10,00,18,
1662273,00000316,false,Rx,0,8,04,00,C0,12,00,00,00,00,
1662507,00000329,false,Rx,0,8,11,7B,C5,00,00,00,00,00,
1662756,000002A1,false,Rx,0,8,00,00,00,00,00,00,00,00,
1662912,0000043B,false,Rx,0,3,46,00,00,00,00,00,00,00,
1663151,00000545,false,Rx,0,8,00,CD,0B,00,7E,10,00,18,
1672266,00000316,false,Rx,0,8,04,00,C0,12,00,00,00,00,
1672511,00000329,false,Rx,0,8,11,7B,C5,00,00,00,00,00,
1672760,000002A1,false,Rx,0,8,00,00,00,00,00,00,00,00,
1672916,0000043B,false,Rx,0,3,46,00,00,00,00,00,00,00,
1673155,00000545,false,Rx,0,8,00,CE,0B,00,7E,10,00,18,
1682271,00000316,false,Rx,0,8,04,00,C0,12,00,00,00,00,
1682505,00000329,false,Rx,0,8,86,7B,C5,00,00,00,00,00,
1682755,000002A1,false,Rx,0,8,00,00,00,00,00,00,00,00,
1682911,0000043B,false,Rx,0,3,46,00,00,00,00,00,00,00,
1683149,00000545,false,Rx,0,8,00,CF,0B,00,7E,10,00,18,
1692275,00000316,false,Rx,0,8,04,00,C0,12,00,00,00,00,
1692509,00000329,false,Rx,0,8,86,7B,C5,00,00,00,00,00,
1692758,000002A1,false,Rx,0,8,00,00,00,00,00,00,00,00,
1692914,0000043B,false,Rx,0,3,46,00,00,00,00,00,00,00,
1693153,00000545,false,Rx,0,8,00,D0,0B,00,7E,10,00,18,
1702270,00000316,false,Rx,0,8,04,00,C0,12,00,00,00,00,
1702514,00000329,false,Rx,0,8,86,7B,C5,00,00,00,00,00,
1702764,000002F0,false,Rx,0,8,00,00,00,00,00,00,00,00,
1703013,00000200,false,Rx,0,8,00,00,00,00,00,00,00,00,
1703262,000002A1,false,Rx,0,8,00,00,00,00,00,00,00,00,
1703418,0000043B,false,Rx,0,3,46,00,00,00,00,00,00,00,
1703655,00000545,false,Rx,0,8,00,D1,0B,00,7E,10,00,18,
1706914,00000285,false,Rx,0,8,00,00,00,00,00,00,00,00,
1707158,00000286,false,Rx,0,8,0F,6E,00,00,00,00,00,00,
1707406,00000523,false,Rx,0,8,00,00,00,00,00,00,00,00,
1712268,00000316,false,Rx,0,8,04,00,C0,12,00,00,00,00,
1712512,00000329,false,Rx,0,8,86,7B,C5,00,00,00,00,00,
1712762,000002A1,false,Rx,0,8,00,00,00,00,00,00,00,00,
1712909,0000043B,false,Rx,0,3,46,00,00,00,00,00,00,00,
1713156,00000545,false,Rx,0,8,00,D2,0B,00,7E,10,00,18,
1722273,00000316,false,Rx,0,8,04,00,C0,12,00,00,00,00,
1722507,00000329,false,Rx,0,8,86,7B,C5,00,00,00,00,00,
1722757,000002A1,false,Rx,0,8,00,00,00,00,00,00,00,00,
1722914,0000043B,false,Rx,0,3,46,00,00,00,00,00,00,00,
1723152,00000545,false,Rx,0,8,00,D3,0B,00,7E,10,00,18,
1732269,00000316,false,Rx,0,8,04,00,C0,12,00,00,00,00,
1732513,00000329,false,Rx,0,8,86,7B,C5,00,00,00,00,00,
1732763,000002A1,false,Rx,0,8,00,00,00,00,00,00,00,00,
1732910,0000043B,false,Rx,0,3,46,00,00,00,00,00,00,00,
1733157,00000545,false,Rx,0,8,00,D4,0B,00,7E,10,00,18,
1742273,00000316,false,Rx,0,8,04,00,C0,12,00,00,00,00,
1742507,00000329,false,Rx,0,8,86,7B,C5,00,00,00,00,00,
1742767,000002A1,false,Rx,0,8,00,00,00,00,00,00,00,00,
1742914,0000043B,false,Rx,0,3,46,00,00,00,00,00,00,00,
1743151,00000545,false,Rx,0,8,00,D5,0B,00,7E,10,00,18,
1752278,00000316,false,Rx,0,8,04,00,C0,12,00,00,00,00,
1752512,00000329,false,Rx,0,8,D9,7B,C5,00,00,00,00,00,
1752762,000002A1,false,Rx,0,8,00,00,00,00,00,00,00,00,
1752919,0000043B,false,Rx,0,3,46,00,00,00,00,00,00,00,
1753156,00000545,false,Rx,0,8,00,D6,0B,00,7E,10,00,18,
1762271,00000316,false,Rx,0,8,04,00,C0,12,00,00,00,00,
1762516,00000329,false,Rx,0,8,D9,7B,C5,00,00,00,00,00,
1762765,000002A1,false,Rx,0,8,00,00,00,00,00,00,00,00,
1762923,0000043B,false,Rx,0,3,46,00,00,00,00,00,00,00,
1763160,00000545,false,Rx,0,8,00,D7,0B,00,7E,10,00,18,
1772275,00000316,false,Rx,0,8,04,00,C0,12,00,00,00,00,
1772520,00000329,false,Rx,0,8,D9,7B,C5,00,00,00,00,00,
1772769,000002A1,false,Rx,0,8,00,00,00,00,00,00,00,00,
1772916,0000043B,false,Rx,0,3,46,00,00,00,00,00,00,00,
1773164,00000545,false,Rx,0,8,00,D8,0B,00,7E,10,00,18,
1782280,00000316,false,Rx,0,8,04,00,C0,12,00,00,00,00,
1782514,00000329,false,Rx,0,8,D9,7B,C5,00,00,00,00,00,
1782763,000002A1,false,Rx,0,8,00,00,00,00,00,00,00,00,
1782921,0000043B,false,Rx,0,3,46,00,00,00,00,00,00,00,
1783158,00000545,false,Rx,0,8,00,D9,0B,00,7E,10,00,18,
1792286,00000316,false,Rx,0,8,04,00,C0,12,00,00,00,00,
1792519,00000329,false,Rx,0,8,D9,7B,C5,00,00,00,00,00,
1792770,000002A1,false,Rx,0,8,00,00,00,00,00,00,00,00,
1792926,0000043B,false,Rx,0,3,46,00,00,00,00,00,00,00,
1793163,00000545,false,Rx,0,8,00,DA,0B,00,7E,10,00,18,
1802278,00000316,false,Rx,0,8,04,00,C0,12,00,00,00,00,
1802522,00000329,false,Rx,0,8,D9,7B,C5,00,00,00,00,00,
1802773,000002A1,false,Rx,0,8,00,00,00,00,00,00,00,00,
1802919,0000043B,false,Rx,0,3,46,00,00,00,00,00,00,00,
1803156,00000545,false,Rx,0,8,00,DB,0B,00,7E,10,00,18,
1806914,00000285,false,Rx,0,8,00,00,00,00,00,00,00,00,
1807159,00000286,false,Rx,0,8,0F,6E,00,00,00,00,00,00,
1807408,00000523,false,Rx,0,8,00,00,00,00,00,00,00,00,
1812279,00000316,false,Rx,0,8,04,00,C0,12,00,00,00,00,
1812523,00000329,false,Rx,0,8,D9,7B,C5,00,00,00,00,00,
1812774,000002F0,false,Rx,0,8,00,00,00,00,00,00,00,00,
1813023,00000200,false,Rx,0,8,00,00,00,00,00,00,00,00,
1813271,000002A1,false,Rx,0,8,00,00,00,00,00,00,00,00,
1813427,0000043B,false,Rx,0,3,46,00,00,00,00,00,00,00,
1813665,00000545,false,Rx,0,8,00,DC,0B,00,7E,10,00,18,
1822280,00000316,false,Rx,0,8,04,00,C0,12,00,00,00,00,
1822514,00000329,false,Rx,0,8,11,7B,C5,00,00,00,00,00,
1822765,000002A1,false,Rx,0,8,00,00,00,00,00,00,00,00,
1822921,0000043B,false,Rx,0,3,46,00,00,00,00,00,00,00,
1823158,00000545,false,Rx,0,8,00,DD,0B,00,7E,10,00,18,
1832276,00000316,false,Rx,0,8,04,00,C0,12,00,00,00,00,
1832520,00000329,false,Rx,0,8,11,7B,C5,00,00,00,00,00,
1832771,000002A1,false,Rx,0,8,00,00,00,00,00,00,00,00,
1832917,0000043B,false,Rx,0,3,46,00,00,00,00,00,00,00,
1833164,00000545,false,Rx,0,8,00,DE,0B,00,7E,10,00,18,
1842280,00000316,false,Rx,0,8,04,00,C0,12,00,00,00,00,
1842524,00000329,false,Rx,0,8,11,7B,C5,00,00,00,00,00,
1842765,000002A1,false,Rx,0,8,00,00,00,00,00,00,00,00,
1842921,0000043B,false,Rx,0,3,46,00,00,00,00,00,00,00,
1843158,00000545,false,Rx,0,8,00,DF,0B,00,7E,10,00,18,
1852273,00000316,false,Rx,0,8,04,00,C0,12,00,00,00,00,
1852517,00000329,false,Rx,0,8,11,7B,C5,00,00,00,00,00,
1852768,000002A1,false,Rx,0,8,00,00,00,00,00,00,00,00,
1852924,0000043B,false,Rx,0,3,46,00,00,00,00,00,00,00,
1853161,00000545,false,Rx,0,8,00,E0,0B,00,7E,10,00,18,
1862278,00000316,false,Rx,0,8,04,00,C0,12,00,00,00,00,
1862523,00000329,false,Rx,0,8,11,7B,C5,00,00,00,00,00,
1862773,000002A1,false,Rx,0,8,00,00,00,00,00,00,00,00,
1862919,0000043B,false,Rx,0,3,46,00,00,00,00,00,00,00,
1863156,00000545,false,Rx,0,8,00,E1,0B,00,7E,10,00,18,
1872283,00000316,false,Rx,0,8,04,00,C0,12,00,00,00,00,
1872517,00000329,false,Rx,0,8,11,7B,C5,00,00,00,00,00,
1872768,000002A1,false,Rx,0,8,00,00,00,00,00,00,00,00,
1872924,0000043B,false,Rx,0,3,46,00,00,00,00,00,00,00,
1873161,00000545,false,Rx,0,8,00,E2,0B,00,7E,10,00,18,
1882278,00000316,false,Rx,0,8,04,00,C0,12,00,00,00,00,
1882523,00000329,false,Rx,0,8,11,7B,C5,00,00,00,00,00,
1882774,000002A1,false,Rx,0,8,00,00,00,00,00,00,00,00,
1882919,0000043B,false,Rx,0,3,46,00,00,00,00,00,00,00,
1883156,00000545,false,Rx,0,8,00,E3,0B,00,7E,10,00,18,
1892284,00000316,false,Rx,0,8,04,00,C0,12,00,00,00,00,
1892518,00000329,false,Rx,0,8,11,7B,C5,00,00,00,00,00,
1892769,000002A1,false,Rx,0,8,00,00,00,00,00,00,00,00,
1892925,0000043B,false,Rx,0,3,46,00,00,00,00,00,00,00,
1893162,00000545,false,Rx,0,8,00,E4,0B,00,7E,10,00,18,
1902278,00000316,false,Rx,0,8,04,00,C0,12,00,00,00,00,
1902522,00000329,false,Rx,0,8,86,7B,C5,00,00,00,00,00,
1902773,000002A1,false,Rx,0,8,00,00,00,00,00,00,00,00,
1902919,0000043B,false,Rx,0,3,46,00,00,00,00,00,00,00,
1903156,00000545,false,Rx,0,8,00,E5,0B,00,7E,10,00,18,
1906914,00000285,false,Rx,0,8,00,00,00,00,00,00,00,00,
1907169,00000286,false,Rx,0,8,0F,6E,00,00,00,00,00,00,
1907408,00000523,false,Rx,0,8,00,00,00,00,00,00,00,00,
1912279,00000316,false,Rx,0,8,04,00,C0,12,00,00,00,00,
1912524,00000329,false,Rx,0,8,86,7B,C5,00,00,00,00,00,
1912765,000002A1,false,Rx,0,8,00,00,00,00,00,00,00,00,
1912921,0000043B,false,Rx,0,3,46,00,00,00,00,00,00,00,
1913158,00000545,false,Rx,0,8,00,E6,0B,00,7E,10,00,18,
1922283,00000316,false,Rx,0,8,04,00,C0,12,00,00,00,00,
1922517,00000329,false,Rx,0,8,86,7B,C5,00,00,00,00,00,
1922768,000002F0,false,Rx,0,8,00,00,00,00,00,00,00,00,
1923027,00000200,false,Rx,0,8,00,00,00,00,00,00,00,00,
1923275,000002A1,false,Rx,0,8,00,00,00,00,00,00,00,00,
1923422,0000043B,false,Rx,0,3,46,00,00,00,00,00,00,00,
1923670,00000545,false,Rx,0,8,00,E7,0B,00,7E,10,00,18,
1932285,00000316,false,Rx,0,8,04,00,C0,12,00,00,00,00,
1932519,00000329,false,Rx,0,8,86,7B,C5,00,00,00,00,00,
1932770,000002A1,false,Rx,0,8,00,00,00,00,00,00,00,00,
1932926,0000043B,false,Rx,0,3,46,00,00,00,00,00,00,00,
1933164,00000545,false,Rx,0,8,00,E8,0B,00,7E,10,00,18,
1942279,00000316,false,Rx,0,8,04,00,C0,12,00,00,00,00,
1942523,00000329,false,Rx,0,8,86,7B,C5,00,00,00,00,00,
1942774,000002A1,false,Rx,0,8,00,00,00,00,00,00,00,00,
1942920,0000043B,false,Rx,0,3,46,00,00,00,00,00,00,00,
1943157,00000545,false,Rx,0,8,00,E9,0B,00,7E,10,00,18,
1952283,00000316,false,Rx,0,8,04,00,C0,12,00,00,00,00,
1952518,00000329,false,Rx,0,8,86,7B,C5,00,00,00,00,00,
1952768,000002A1,false,Rx,0,8,00,00,00,00,00,00,00,00,
1952924,0000043B,false,Rx,0,3,46,00,00,00,00,00,00,00,
1953161,00000545,false,Rx,0,8,00,EA,0B,00,7E,10,00,18,
1962287,00000316,false,Rx,0,8,04,00,C0,12,00,00,00,00,
1962522,00000329,false,Rx,0,8,86,7B,C5,00,00,00,00,00,
1962772,000002A1,false,Rx,0,8,00,00,00,00,00,00,00,00,
1962928,0000043B,false,Rx,0,3,46,00,00,00,00,00,00,00,
1963165,00000545,false,Rx,0,8,00,EB,0B,00,7E,10,00,18,
1972281,00000316,false,Rx,0,8,04,00,C0,12,00,00,00,00,
1972526,00000329,false,Rx,0,8,D9,7B,C5,00,00,00,00,00,
1972776,000002A1,false,Rx,0,8,00,00,00,00,00,00,00,00,
1972932,0000043B,false,Rx,0,3,46,00,00,00,00,00,00,00,
1973169,00000545,false,Rx,0,8,00,EC,0B,00,7E,10,00,18,
1982284,00000316,false,Rx,0,8,04,00,C0,12,00,00,00,00,
1982530,00000329,false,Rx,0,8,D9,7B,C5,00,00,00,00,00,
1982779,000002A1,false,Rx,0,8,00,00,00,00,00,00,00,00,
1982925,0000043B,false,Rx,0,3,46,00,00,00,00,00,00,00,
1983162,00000545,false,Rx,0,8,00,ED,0B,00,7E,10,00,18,
1992288,00000316,false,Rx,0,8,04,00,C0,12,00,00,00,00,
1992524,00000329,false,Rx,0,8,D9,7B,C5,00,00,00,00,00,
1992774,000002A1,false,Rx,0,8,00,00,00,00,00,00,00,00,
1992929,0000043B,false,Rx,0,3,46,00,00,00,00,00,00,00,
1993167,00000545,false,Rx,0,8,00,EE,0B,00,7E,10,00,18,
2002283,00000316,false,Rx,0,8,04,00,C0,12,00,00,00,00,
2002529,00000329,false,Rx,0,8,D9,7B,C5,00,00,00,00,00,
2002778,000002A1,false,Rx,0,8,00,00,00,00,00,00,00,00,
2002934,0000043B,false,Rx,0,3,46,00,00,00,00,00,00,00,
2003172,00000545,false,Rx,0,8,00,EF,0B,00,7E,10,00,18,
2006920,00000285,false,Rx,0,8,00,00,00,00,00,00,00,00,
2007165,00000286,false,Rx,0,8,0F,6E,00,00,00,00,00,00,
2007414,00000523,false,Rx,0,8,00,00,00,00,00,00,00,00,
2012284,00000316,false,Rx,0,8,04,00,C0,12,00,00,00,00,
2012530,00000329,false,Rx,0,8,D9,7B,C5,00,00,00,00,00,
2012780,000002A1,false,Rx,0,8,00,00,00,00,00,00,00,00,
2012936,0000043B,false,Rx,0,3,46,00,00,00,00,00,00,00,
2013173,00000545,false,Rx,0,8,00,F0,0B,00,7E,10,00,18,
2022289,00000316,false,Rx,0,8,04,00,C0,12,00,00,00,00,
2022525,00000329,false,Rx,0,8,D9,7B,C5,00,00,00,00,00,
2022775,000002A1,false,Rx,0,8,00,00,00,00,00,00,00,00,
2022931,0000043B,false,Rx,0,3,46,00,00,00,00,00,00,00,
2023170,00000545,false,Rx,0,8,00,F1,0B,00,7E,10,00,18,
2032284,00000316,false,Rx,0,8,04,00,C0,12,00,00,00,00,
2032530,00000329,false,Rx,0,8,D9,7B,C5,00,00,00,00,00,
2032779,000002F0,false,Rx,0,8,00,00,00,00,00,00,00,00,
2033038,00000200,false,Rx,0,8,00,00,00,00,00,00,00,00,
2033288,000002A1,false,Rx,0,8,00,00,00,00,00,00,00,00,
2033434,0000043B,false,Rx,0,3,46,00,00,00,00,00,00,00,
2033671,00000545,false,Rx,0,8,00,F2,0B,00,7E,10,00,18,
2042286,00000316,false,Rx,0,8,04,00,C0,12,00,00,00,00,
2042531,00000329,false,Rx,0,8,11,7B,C5,00,00,00,00,00,
2042781,000002A1,false,Rx,0,8,00,00,00,00,00,00,00,00,
2042927,0000043B,false,Rx,0,3,46,00,00,00,00,00,00,00,
2043165,00000545,false,Rx,0,8,00,F3,0B,00,7E,10,00,18,
2052292,00000316,false,Rx,0,8,04,00,C0,12,00,00,00,00,
2052527,00000329,false,Rx,0,8,11,7B,C5,00,00,00,00,00,
2052777,000002A1,false,Rx,0,8,00,00,00,00,00,00,00,00,
2052933,0000043B,false,Rx,0,3,46,00,00,00,00,00,00,00,
2053171,00000545,false,Rx,0,8,00,F4,0B,00,7E,10,00,18,
2062285,00000316,false,Rx,0,8,04,00,C0,12,00,00,00,00,
2062531,00000329,false,Rx,0,8,11,7B,C5,00,00,00,00,00,
2062781,000002A1,false,Rx,0,8,00,00,00,00,00,00,00,00,
2062926,0000043B,false,Rx,0,3,46,00,00,00,00,00,00,00,
2063165,00000545,false,Rx,0,8,00,F5,0B,00,7E,10,00,18,
2072289,00000316,false,Rx,0,8,04,00,C0,12,00,00,00,00,
2072535,00000329,false,Rx,0,8,11,7B,C5,00,00,00,00,00,
2072784,000002A1,false,Rx,0,8,00,00,00,00,00,00,00,00,
2072930,0000043B,false,Rx,0,3,46,00,00,00,00,00,00,00,
2073168,00000545,false,Rx,0,8,00,F6,0B,00,7E,10,00,18,
2082294,00000316,false,Rx,0,8,04,00,C0,12,00,00,00,00,
2082530,00000329,false,Rx,0,8,11,7B,C5,00,00,00,00,00,
2082779,000002A1,false,Rx,0,8,00,00,00,00,00,00,00,00,
2082935,0000043B,false,Rx,0,3,46,00,00,00,00,00,00,00,
2083174,00000545,false,Rx,0,8,00,F7,0B,00,7E,10,00,18,
2092289,00000316,false,Rx,0,8,04,00,C0,12,00,00,00,00,
2092534,00000329,false,Rx,0,8,11,7B,C5,00,00,00,00,00,
2092783,000002A1,false,Rx,0,8,00,00,00,00,00,00,00,00,
2092929,0000043B,false,Rx,0,3,46,00,00,00,00,00,00,00,
2093178,00000545,false,Rx,0,8,00,F8,0B,00,7E,10,00,18,
2102293,00000316,false,Rx,0,8,04,00,C0,12,00,00,00,00,
2102527,00000329,false,Rx,0,8,11,7B,C5,00,00,00,00,00,
2102777,000002A1,false,Rx,0,8,00,00,00,00,00,00,00,00,
2102933,0000043B,false,Rx,0,3,46,00,00,00,00,00,00,00,
2103171,00000545,false,Rx,0,8,00,F9,0B,00,7E,10,00,18,
2106929,00000285,false,Rx,0,8,00,00,00,00,00,00,00,00,
2107174,00000286,false,Rx,0,8,0F,6E,00,00,00,00,00,00,
2107422,00000523,false,Rx,0,8,00,00,00,00,00,00,00,00,
2112294,00000316,false,Rx,0,8,04,00,C0,12,00,00,00,00,
2112528,00000329,false,Rx,0,8,11,7B,C5,00,00,00,00,00,
2112778,000002A1,false,Rx,0,8,00,00,00,00,00,00,00,00,
2112934,0000043B,false,Rx,0,3,46,00,00,00,00,00,00,00,
2113172,00000545,false,Rx,0,8,00,FA,0B,00,7E,10,00,18,
2122289,00000316,false,Rx,0,8,04,00,C0,12,00,00,00,00,
2122533,00000329,false,Rx,0,8,86,7B,C5,00,00,00,00,00,
2122783,000002A1,false,Rx,0,8,00,00,00,00,00,00,00,00,
2122928,0000043B,false,Rx,0,3,46,00,00,00,00,00,00,00,
2123177,00000545,false,Rx,0,8,00,FB,0B,00,7E,10,00,18,
2132294,00000316,false,Rx,0,8,04,00,C0,12,00,00,00,00,
2132528,00000329,false,Rx,0,8,86,7B,C5,00,00,00,00,00,
2132777,000002A1,false,Rx,0,8,00,00,00,00,00,00,00,00,
2132933,0000043B,false,Rx,0,3,46,00,00,00,00,00,00,00,
2133172,00000545,false,Rx,0,8,00,FC,0B,00,7E,10,00,18,
2142297,00000316,false,Rx,0,8,04,00,C0,12,00,00,00,00,
2142531,00000329,false,Rx,0,8,86,7B,C5,00,00,00,00,00,
2142781,000002F0,false,Rx,0,8,00,00,00,00,00,00,00,00,
2143030,00000200,false,Rx,0,8,00,00,00,00,00,00,00,00,
2143289,000002A1,false,Rx,0,8,00,00,00,00,00,00,00,00,
2143435,0000043B,false,Rx,0,3,46,00,00,00,00,00,00,00,
2143672,00000545,false,Rx,0,8,00,FD,0B,00,7E,10,00,18,
2152289,00000316,false,Rx,0,8,04,00,C0,12,00,00,00,00,
2152533,00000329,false,Rx,0,8,86,7B,C5,00,00,00,00,00,
2152783,000002A1,false,Rx,0,8,00,00,00,00,00,00,00,00,
2152929,0000043B,false,Rx,0,3,46,00,00,00,00,00,00,00,
2153177,00000545,false,Rx,0,8,00,FE,0B,00,7E,10,00,18,
2162294,00000316,false,Rx,0,8,04,00,C0,12,00,00,00,00,
2162528,00000329,false,Rx,0,8,86,7B,C5,00,00,00,00,00,
2162777,000002A1,false,Rx,0,8,00,00,00,00,00,00,00,00,
2162933,0000043B,false,Rx,0,3,46,00,00,00,00,00,00,00,
2163172,00000545,false,Rx,0,8,00,FF,0B,00,7E,10,00,18,
2172288,00000316,false,Rx,0,8,04,00,C0,12,00,00,00,00,
2172533,00000329,false,Rx,0,8,86,7B,C5,00,00,00,00,00,
2172782,000002A1,false,Rx,0,8,00,00,00,00,00,00,00,00,
2172939,0000043B,false,Rx,0,3,46,00,00,00,00,00,00,00,
2173177,00000545,false,Rx,0,8,00,00,0C,00,7E,10,00,18,
2182291,00000316,false,Rx,0,8,04,00,C0,12,00,00,00,00,
2182536,00000329,false,Rx,0,8,86,7B,C5,00,00,00,00,00,
2182786,000002A1,false,Rx,0,8,00,00,00,00,00,00,00,00,
2182932,0000043B,false,Rx,0,3,46,00,00,00,00,00,00,00,
2183180,00000545,false,Rx,0,8,00,01,0C,00,7E,10,00,18,
2192296,00000316,false,Rx,0,8,04,00,C0,12,00,00,00,00,
2192540,00000329,false,Rx,0,8,D9,7B,C5,00,00,00,00,00,
2192791,000002A1,false,Rx,0,8,00,00,00,00,00,00,00,00,
2192938,0000043B,false,Rx,0,3,46,00,00,00,00,00,00,00,
2193185,00000545,false,Rx,0,8,00,02,0C,00,7E,10,00,18,
2202290,00000316,false,Rx,0,8,04,00,C0,12,00,00,00,00,
2202535,00000329,false,Rx,0,8,D9,7B,C5,00,00,00,00,00,
2202784,000002A1,false,Rx,0,8,00,00,00,00,00,00,00,00,
2202941,0000043B,false,Rx,0,3,46,00,00,00,00,00,00,00,
2203179,00000545,false,Rx,0,8,00,03,0C,00,7E,10,00,18,
2206936,00000285,false,Rx,0,8,00,00,00,00,00,00,00,00,
2207181,00000286,false,Rx,0,8,0F,6E,00,00,00,00,00,00,
2207429,00000523,false,Rx,0,8,00,00,00,00,00,00,00,00,
2212291,00000316,false,Rx,0,8,04,00,C0,12,00,00,00,00,
2212535,00000329,false,Rx,0,8,D9,7B,C5,00,00,00,00,00,
2212786,000002A1,false,Rx,0,8,00,00,00,00,00,00,00,00,
2212943,0000043B,false,Rx,0,3,46,00,00,00,00,00,00,00,
2213180,00000545,false,Rx,0,8,00,04,0C,00,7E,10,00,18,
2222296,00000316,false,Rx,0,8,04,00,C0,12,00,00,00,00,
2222540,00000329,false,Rx,0,8,D9,7B,C5,00,00,00,00,00,
2222790,000002A1,false,Rx,0,8,00,00,00,00,00,00,00,00,
2222936,0000043B,false,Rx,0,3,46,00,00,00,00,00,00,00,
2223184,00000545,false,Rx,0,8,00,05,0C,00,7E,10,00,18,
2232301,00000316,false,Rx,0,8,04,00,C0,12,00,00,00,00,
2232535,00000329,false,Rx,0,8,D9,7B,C5,00,00,00,00,00,
2232786,000002A1,false,Rx,0,8,00,00,00,00,00,00,00,00,
2232943,0000043B,false,Rx,0,3,46,00,00,00,00,00,00,00,
2233190,00000545,false,Rx,0,8,00,06,0C,00,7E,10,00,18,
2242295,00000316,false,Rx,0,8,04,00,C0,12,00,00,00,00,
2242540,00000329,false,Rx,0,8,D9,7B,C5,00,00,00,00,00,
2242790,000002A1,false,Rx,0,8,00,00,00,00,00,00,00,00,
2242947,0000043B,false,Rx,0,3,46,00,00,00,00,00,00,00,
2243184,00000545,false,Rx,0,8,00,07,0C,00,7E,10,00,18,
2252299,00000316,false,Rx,0,8,04,00,C0,12,00,00,00,00,
2252544,00000329,false,Rx,0,8,D9,7B,C5,00,00,00,00,00,
2252793,000002F0,false,Rx,0,8,00,00,00,00,00,00,00,00,
2253043,00000200,false,Rx,0,8,00,00,00,00,00,00,00,00,
2253292,000002A1,false,Rx,0,8,00,00,00,00,00,00,00,00,
2253447,0000043B,false,Rx,0,3,46,00,00,00,00,00,00,00,
2253686,00000545,false,Rx,0,8,00,08,0C,00,7E,10,00,18,
2262301,00000316,false,Rx,0,8,04,00,C0,12,00,00,00,00,
2262535,00000329,false,Rx,0,8,11,7B,C5,00,00,00,00,00,
2262787,000002A1,false,Rx,0,8,00,00,00,00,00,00,00,00,
2262943,0000043B,false,Rx,0,3,46,00,00,00,00,00,00,00,
2263180,00000545,false,Rx,0,8,00,09,0C,00,7E,10,00,18,
2272295,00000316,false,Rx,0,8,04,00,C0,12,00,00,00,00,
2272540,00000329,false,Rx,0,8,11,7B,C5,00,00,00,00,00,
2272791,000002A1,false,Rx,0,8,00,00,00,00,00,00,00,00,
2272936,0000043B,false,Rx,0,3,46,00,00,00,00,00,00,00,
2273184,00000545,false,Rx,0,8,00,0A,0C,00,7E,10,00,18,
2282300,00000316,false,Rx,0,8,04,00,C0,12,00,00,00,00,
2282544,00000329,false,Rx,0,8,11,7B,C5,00,00,00,00,00,
2282795,000002A1,false,Rx,0,8,00,00,00,00,00,00,00,00,
2282940,0000043B,false,Rx,0,3,46,00,00,00,00,00,00,00,
2283178,00000545,false,Rx,0,8,00,0B,0C,00,7E,10,00,18,
2292305,00000316,false,Rx,0,8,04,00,C0,12,00,00,00,00,
2292539,00000329,false,Rx,0,8,11,7B,C5,00,00,00,00,00,
2292790,000002A1,false,Rx,0,8,00,00,00,00,00,00,00,00,
2292946,0000043B,false,Rx,0,3,46,00,00,00,00,00,00,00,
2293183,00000545,false,Rx,0,8,00,0C,0C,00,7E,10,00,18,
2302300,00000316,false,Rx,0,8,04,00,C0,12,00,00,00,00,
2302534,00000329,false,Rx,0,8,11,7B,C5,00,00,00,00,00,
2302785,000002A1,false,Rx,0,8,00,00,00,00,00,00,00,00,
2302941,0000043B,false,Rx,0,3,46,00,00,00,00,00,00,00,
2303178,00000545,false,Rx,0,8,00,0D,0C,00,7E,10,00,18,
2306936,00000285,false,Rx,0,8,00,00,00,00,00,00,00,00,
2307181,00000286,false,Rx,0,8,0F,6E,00,00,00,00,00,00,
2307430,00000523,false,Rx,0,8,00,00,00,00,00,00,00,00,
2312302,00000316,false,Rx,0,8,04,00,C0,12,00,00,00,00,
2312536,00000329,false,Rx,0,8,11,7B,C5,00,00,00,00,00,
2312787,000002A1,false,Rx,0,8,00,00,00,00,00,00,00,00,
2312943,0000043B,false,Rx,0,3,46,00,00,00,00,00,00,00,
2313181,00000545,false,Rx,0,8,00,0E,0C,00,7E,10,00,18,
2322296,00000316,false,Rx,0,8,04,00,C0,12,00,00,00,00,
